time	V(far)	V(near)	V(probe)
0.000000000000000e+00	2.489260e-03	2.489260e-03	2.657687e+00
1.000000000000000e-09	2.489260e-03	2.489260e-03	2.657687e+00
1.248610568318581e-09	2.489260e-03	2.489260e-03	2.657687e+00
1.250856815379703e-09	1.774705e-01	1.779768e-01	2.832668e+00
1.252061089681083e-09	3.482359e-01	3.496312e-01	3.003433e+00
1.252940698542020e-09	4.530735e-01	4.556012e-01	3.108271e+00
1.253895307369188e-09	5.509349e-01	5.552468e-01	3.206133e+00
1.255804525023526e-09	7.066813e-01	7.165264e-01	3.361879e+00
1.258213179949524e-09	8.444509e-01	8.652794e-01	3.499649e+00
1.261549263265084e-09	9.632021e-01	1.006669e+00	3.618400e+00
1.265299374224250e-09	1.034880e+00	1.113157e+00	3.690078e+00
1.269981468183487e-09	1.075513e+00	1.208082e+00	3.730710e+00
1.275440728110254e-09	1.089336e+00	1.294678e+00	3.744533e+00
1.282698297098860e-09	1.084828e+00	1.391560e+00	3.740026e+00
1.291113737779541e-09	1.067083e+00	1.484756e+00	3.722281e+00
1.302302399208249e-09	1.035703e+00	1.575711e+00	3.690900e+00
1.317538418984811e-09	9.846650e-01	1.644270e+00	3.639863e+00
1.333732047653035e-09	9.221669e-01	1.670265e+00	3.577364e+00
1.353319879053579e-09	8.381467e-01	1.677128e+00	3.493344e+00
1.375599505878663e-09	7.362895e-01	1.681649e+00	3.391487e+00
1.408021453964266e-09	5.884176e-01	1.697482e+00	3.243615e+00
1.447248295166214e-09	4.291290e-01	1.740863e+00	3.084327e+00
1.460848419991069e-09	3.819503e-01	1.765158e+00	3.037148e+00
1.472799750350291e-09	3.449176e-01	1.792189e+00	3.000115e+00
1.482692517144088e-09	3.175425e-01	1.818752e+00	2.972740e+00
1.491765745738301e-09	2.950905e-01	1.846386e+00	2.950288e+00
1.500000000000000e-09	2.768944e-01	1.874055e+00	2.932092e+00
1.503646598315896e-09	2.695109e-01	1.887101e+00	2.924709e+00
1.507293196631791e-09	2.624989e-01	1.900561e+00	2.917697e+00
1.510939794947686e-09	2.558585e-01	1.914436e+00	2.911056e+00
1.514586393263582e-09	2.495895e-01	1.928725e+00	2.904787e+00
1.518232991579477e-09	2.436921e-01	1.943430e+00	2.898890e+00
1.521879589895372e-09	2.381663e-01	1.958549e+00	2.893364e+00
1.525526188211268e-09	2.330119e-01	1.974083e+00	2.888210e+00
1.551875801848705e-09	2.043994e-01	2.095333e+00	2.859597e+00
1.581595973959125e-09	1.859774e-01	2.245735e+00	2.841175e+00
1.611142638622144e-09	1.734687e-01	2.398824e+00	2.828666e+00
1.641589962629434e-09	1.565411e-01	2.547989e+00	2.811739e+00
1.674906100724016e-09	1.230415e-01	2.688473e+00	2.778239e+00
1.707876634575200e-09	6.793402e-02	2.795301e+00	2.723132e+00
1.745902793837222e-09	-2.364809e-02	2.875103e+00	2.631550e+00
1.777244836134923e-09	-1.165743e-01	2.909347e+00	2.538623e+00
1.813046593229327e-09	-2.291518e-01	2.924705e+00	2.426046e+00
1.851910384500071e-09	-3.400958e-01	2.930293e+00	2.315102e+00
1.859019025306412e-09	-3.200140e-01	2.931344e+00	2.252335e+00
1.862951297357661e-09	-3.226863e-01	2.932096e+00	2.288179e+00
1.865178876912413e-09	-3.421386e-01	2.932586e+00	2.283113e+00
1.866480567300303e-09	-3.518649e-01	2.932896e+00	2.280214e+00
1.868056608099810e-09	-3.622975e-01	2.933295e+00	2.276764e+00
1.871208689698823e-09	-3.795691e-01	2.934179e+00	2.270071e+00
1.874961318874189e-09	-3.951747e-01	2.935388e+00	2.262442e+00
1.879265486350658e-09	-4.072185e-01	2.937002e+00	2.253507e+00
1.883559901684806e-09	-4.110254e-01	2.938874e+00	2.241335e+00
1.887113901852344e-09	-4.058370e-01	2.940633e+00	2.226229e+00
1.890970067570102e-09	-3.907734e-01	2.942770e+00	2.203030e+00
1.893481464729970e-09	-3.804946e-01	2.944294e+00	2.199442e+00
1.896129816181193e-09	-3.644913e-01	2.946019e+00	2.159672e+00
1.898859520528761e-09	-3.449681e-01	2.947926e+00	2.156256e+00
1.902692285354740e-09	-3.120145e-01	2.950832e+00	2.085170e+00
1.908515288875512e-09	-2.457172e-01	2.955774e+00	2.003844e+00
1.911350931890331e-09	-2.230999e-01	2.958415e+00	2.001525e+00
1.915171301338789e-09	-2.130407e-01	2.962223e+00	1.998855e+00
1.917384640189623e-09	-1.984141e-01	2.964561e+00	1.862786e+00
1.919927700634955e-09	-1.729644e-01	2.967369e+00	1.861502e+00
1.921741617658110e-09	-1.634446e-01	2.969451e+00	1.860728e+00
1.924070494753381e-09	-1.589059e-01	2.972221e+00	1.859909e+00
1.926185444499664e-09	-1.439817e-01	2.974832e+00	1.672115e+00
1.928263570691847e-09	-1.217704e-01	2.977485e+00	1.679267e+00
1.930074144265071e-09	-1.114046e-01	2.979869e+00	1.679039e+00
1.932276422233463e-09	-1.066903e-01	2.982857e+00	1.678922e+00
1.936680978170248e-09	-1.145088e-01	2.989126e+00	1.679208e+00
1.940893434414558e-09	-1.352244e-01	2.995486e+00	1.680129e+00
1.943637490093113e-09	-1.318324e-01	2.999817e+00	1.435011e+00
1.946671017238145e-09	-1.148626e-01	3.004775e+00	1.436354e+00
1.948705289776133e-09	-1.117006e-01	3.008200e+00	1.437433e+00
1.951384785799796e-09	-1.141870e-01	3.012830e+00	1.439071e+00
1.956466878536129e-09	-1.309664e-01	3.021978e+00	1.442843e+00
1.959694277739080e-09	-1.293095e-01	3.028029e+00	1.226144e+00
1.963155606520708e-09	-1.176777e-01	3.034719e+00	1.229566e+00
1.965750098964744e-09	-1.171449e-01	3.039867e+00	1.232381e+00
1.968983255788658e-09	-1.221914e-01	3.046434e+00	1.236181e+00
1.974510787639120e-09	-1.376064e-01	3.058033e+00	1.243406e+00
1.978022100831195e-09	-1.291162e-01	3.065633e+00	1.042947e+00
1.981612506429888e-09	-1.064584e-01	3.073575e+00	1.036230e+00
1.984107952236997e-09	-9.793996e-02	3.079191e+00	1.040273e+00
1.987383854706944e-09	-9.347624e-02	3.086674e+00	1.045825e+00
1.992482416208802e-09	-9.470974e-02	3.098549e+00	1.054994e+00
1.998197283780011e-09	-1.002233e-01	3.112146e+00	1.065987e+00
2.002080352990135e-09	-8.128019e-02	3.121531e+00	9.512336e-01
2.006120836407639e-09	-4.762495e-02	3.131397e+00	9.597406e-01
2.009061703840394e-09	-3.352202e-02	3.138631e+00	9.661220e-01
2.012628493424610e-09	-2.314226e-02	3.147448e+00	9.740588e-01
2.018594890678372e-09	-1.379960e-02	3.162260e+00	9.877672e-01
2.024962045330776e-09	-7.045430e-03	3.178082e+00	1.002913e+00
2.029242217471694e-09	3.756438e-02	3.188683e+00	9.408472e-01
2.033193401902643e-09	9.873732e-02	3.198413e+00	9.511225e-01
2.035970431081777e-09	1.248828e-01	3.205207e+00	9.580603e-01
2.039353102439826e-09	1.456586e-01	3.213418e+00	9.665712e-01
2.044719493126993e-09	1.640755e-01	3.226262e+00	9.801669e-01
2.050836722369602e-09	1.748026e-01	3.240567e+00	9.957339e-01
2.058756260116673e-09	1.863304e-01	3.258418e+00	1.015840e+00
2.068377091795034e-09	2.065425e-01	3.278844e+00	1.039916e+00
2.073850038271407e-09	2.835001e-01	3.289749e+00	1.098013e+00
2.079325027110565e-09	3.867176e-01	3.300062e+00	1.111137e+00
2.083483837008778e-09	4.418236e-01	3.307466e+00	1.156976e+00
2.088379097101123e-09	4.954560e-01	3.315671e+00	1.174052e+00
2.095412178474334e-09	5.280100e-01	3.326425e+00	1.189444e+00
2.101114394007977e-09	5.536686e-01	3.334197e+00	1.244997e+00
2.107484515899821e-09	5.840578e-01	3.341813e+00	1.257514e+00
2.120224759683508e-09	6.468883e-01	3.353444e+00	1.354806e+00
2.142493614672193e-09	7.819454e-01	3.361495e+00	1.482210e+00
2.162319639174922e-09	8.749136e-01	3.355079e+00	1.590974e+00
2.182774241315158e-09	9.746398e-01	3.335256e+00	1.696419e+00
2.211137517597054e-09	1.107272e+00	3.288132e+00	1.829880e+00
2.239095209438422e-09	1.229687e+00	3.224269e+00	1.947864e+00
2.271154816901857e-09	1.364761e+00	3.139611e+00	2.071835e+00
2.300268386643639e-09	1.489979e+00	3.061891e+00	2.180475e+00
2.333247120917374e-09	1.644629e+00	2.985060e+00	2.307696e+00
2.365944755417782e-09	1.734225e+00	2.930094e+00	2.306869e+00
2.391558130270041e-09	1.961536e+00	2.905644e+00	2.561655e+00
2.417157603631444e-09	2.208798e+00	2.898224e+00	2.686610e+00
2.441431795276589e-09	2.309707e+00	2.905307e+00	2.809942e+00
2.467248894835628e-09	2.435851e+00	2.924305e+00	2.867599e+00
2.491363947734634e-09	2.638735e+00	2.964998e+00	3.060409e+00
2.514790005849277e-09	2.849228e+00	2.963274e+00	3.166382e+00
2.542936635108734e-09	2.996640e+00	2.978893e+00	3.274946e+00
2.574223502382124e-09	3.166474e+00	3.001418e+00	3.364521e+00
2.606406624569485e-09	3.312410e+00	2.883200e+00	3.417639e+00
2.633166673109753e-09	3.406593e+00	2.866491e+00	3.431410e+00
2.662905017696253e-09	3.481422e+00	2.943685e+00	3.416232e+00
2.691979448144775e-09	3.526080e+00	2.886494e+00	3.373720e+00
2.718635540177530e-09	3.546880e+00	2.844878e+00	3.316410e+00
2.748406383608894e-09	3.555801e+00	2.760415e+00	3.241295e+00
2.770571051818540e-09	3.558024e+00	2.675435e+00	3.183753e+00
2.788028065966598e-09	3.560176e+00	2.672525e+00	3.140774e+00
2.807853005135170e-09	3.565188e+00	2.667947e+00	3.096883e+00
2.825941732442014e-09	3.585889e+00	2.650370e+00	3.084588e+00
2.850868513164546e-09	3.595853e+00	2.677003e+00	3.025637e+00
2.870078417215905e-09	3.598942e+00	2.726775e+00	3.005172e+00
2.883473996207816e-09	3.628522e+00	2.719864e+00	3.013651e+00
2.896733909164932e-09	3.645742e+00	2.734035e+00	2.986890e+00
2.904509020518962e-09	3.652113e+00	2.755041e+00	2.994784e+00
2.909974009655316e-09	3.664500e+00	2.758503e+00	3.000788e+00
2.914698987460414e-09	3.676891e+00	2.757940e+00	3.006241e+00
2.919474394179883e-09	3.689747e+00	2.756349e+00	3.011966e+00
2.924099163094214e-09	3.688503e+00	2.779449e+00	2.969776e+00
2.929223715636527e-09	3.680185e+00	2.821457e+00	2.975986e+00
2.934156333953334e-09	3.684147e+00	2.843621e+00	2.982364e+00
2.939753708069038e-09	3.695669e+00	2.853473e+00	2.989665e+00
2.946229411447203e-09	3.712646e+00	2.852979e+00	2.998109e+00
2.957152947040875e-09	3.741318e+00	2.844198e+00	3.012118e+00
2.965245800853370e-09	3.737765e+00	2.884326e+00	2.967479e+00
2.975937955775001e-09	3.728535e+00	2.954704e+00	2.979925e+00
2.985704828618098e-09	3.747769e+00	2.961118e+00	2.990132e+00
2.997092763957184e-09	3.747742e+00	2.994914e+00	2.951601e+00
3.011661497290636e-09	3.744804e+00	3.035037e+00	2.960880e+00
3.028351950755753e-09	3.742868e+00	3.075015e+00	2.918617e+00
3.054538066372901e-09	3.707727e+00	3.171590e+00	2.873256e+00
3.078760029573517e-09	3.676324e+00	3.112781e+00	2.816033e+00
3.104682674369354e-09	3.616273e+00	3.075162e+00	2.740783e+00
3.126656719367825e-09	3.552216e+00	3.142515e+00	2.668625e+00
3.150048818002300e-09	3.460739e+00	3.195579e+00	2.586427e+00
3.171814354183905e-09	3.372290e+00	3.158472e+00	2.507840e+00
3.192464910749488e-09	3.314889e+00	3.063093e+00	2.456137e+00
3.214248626521902e-09	3.233005e+00	3.108794e+00	2.364747e+00
3.232650170648260e-09	3.129204e+00	3.195652e+00	2.312469e+00
3.251730676050922e-09	3.076184e+00	3.147069e+00	2.281047e+00
3.266815325909328e-09	3.075876e+00	3.149198e+00	2.236281e+00
3.283509058332635e-09	3.061194e+00	3.183195e+00	2.221825e+00
3.300149529428683e-09	3.078989e+00	3.215125e+00	2.192550e+00
3.316798123576692e-09	3.069691e+00	3.284127e+00	2.180716e+00
3.329817656330891e-09	3.022081e+00	3.299726e+00	2.179039e+00
3.344339993650376e-09	2.993313e+00	3.309900e+00	2.180141e+00
3.357119077569858e-09	2.984433e+00	3.313845e+00	2.191370e+00
3.372147108297159e-09	2.987959e+00	3.313435e+00	2.207927e+00
3.384977614630986e-09	2.971693e+00	3.392393e+00	2.206616e+00
3.397256250577165e-09	2.946578e+00	3.495860e+00	2.219833e+00
3.410183719561877e-09	2.953346e+00	3.521385e+00	2.238230e+00
3.421350000677529e-09	2.988286e+00	3.533621e+00	2.248699e+00
3.433856198012731e-09	3.023630e+00	3.567496e+00	2.263864e+00
3.445944898739664e-09	3.032493e+00	3.594554e+00	2.277900e+00
3.460626355337801e-09	3.033554e+00	3.617329e+00	2.293509e+00
3.474590116352216e-09	3.034085e+00	3.616946e+00	2.305047e+00
3.490365481655341e-09	3.048039e+00	3.639356e+00	2.317664e+00
3.502868972477359e-09	3.056175e+00	3.671278e+00	2.324234e+00
3.515018831940045e-09	3.035961e+00	3.690093e+00	2.328336e+00
3.528409534962785e-09	3.011655e+00	3.700281e+00	2.330182e+00
3.541090893153650e-09	2.994514e+00	3.696945e+00	2.329434e+00
3.551146959157022e-09	2.980646e+00	3.699248e+00	2.327257e+00
3.560745097532182e-09	2.987890e+00	3.688795e+00	2.324034e+00
3.571472026771537e-09	2.988752e+00	3.665028e+00	2.319342e+00
3.577540422850674e-09	2.967484e+00	3.662605e+00	2.319679e+00
3.583185475105299e-09	2.945222e+00	3.662470e+00	2.313228e+00
3.589381315743952e-09	2.928252e+00	3.656762e+00	2.305614e+00
3.593730615175493e-09	2.924534e+00	3.655098e+00	2.307196e+00
3.599364796593481e-09	2.924074e+00	3.654527e+00	2.299864e+00
3.605306337239918e-09	2.932831e+00	3.639910e+00	2.300375e+00
3.612232025777908e-09	2.941037e+00	3.618819e+00	2.296377e+00
3.615645226671242e-09	2.935446e+00	3.612322e+00	2.291763e+00
3.617893323991090e-09	2.930761e+00	3.608161e+00	2.288728e+00
3.621106302006047e-09	2.923270e+00	3.602418e+00	2.284404e+00
3.624871933208874e-09	2.915631e+00	3.600770e+00	2.289647e+00
3.631327422881394e-09	2.903244e+00	3.602455e+00	2.281160e+00
3.637942662968250e-09	2.897685e+00	3.592118e+00	2.284075e+00
3.643652345782242e-09	2.895795e+00	3.577304e+00	2.277045e+00
3.650115318387675e-09	2.885405e+00	3.563076e+00	2.269460e+00
3.655081561807747e-09	2.878230e+00	3.561305e+00	2.279981e+00
3.660052522497200e-09	2.872195e+00	3.564988e+00	2.274784e+00
3.665593899193209e-09	2.862946e+00	3.563622e+00	2.269400e+00
3.669630256072515e-09	2.855736e+00	3.559842e+00	2.265771e+00
3.674665179270566e-09	2.847111e+00	3.552993e+00	2.261613e+00
3.679296500453209e-09	2.859238e+00	3.543624e+00	2.284148e+00
3.682866443950628e-09	2.877722e+00	3.535248e+00	2.284495e+00
3.686894249557620e-09	2.886657e+00	3.526918e+00	2.282097e+00
3.689929482855447e-09	2.887820e+00	3.521333e+00	2.280504e+00
3.693000764441732e-09	2.886062e+00	3.516303e+00	2.279086e+00
3.697347009661839e-09	2.880757e+00	3.510223e+00	2.277425e+00
3.701905547796337e-09	2.873574e+00	3.505063e+00	2.276133e+00
3.705581844286247e-09	2.858591e+00	3.504739e+00	2.301432e+00
3.709262147791306e-09	2.838971e+00	3.507075e+00	2.301049e+00
3.713055788541103e-09	2.826363e+00	3.508120e+00	2.300989e+00
3.718350885229644e-09	2.817348e+00	3.507760e+00	2.301478e+00
3.724299378517605e-09	2.814946e+00	3.505609e+00	2.302830e+00
3.732165621637967e-09	2.816388e+00	3.500580e+00	2.339174e+00
3.740353267348806e-09	2.822316e+00	3.495168e+00	2.343997e+00
3.749233005665360e-09	2.870033e+00	3.489897e+00	2.377513e+00
3.758427164218964e-09	2.934983e+00	3.486002e+00	2.395710e+00
3.767802812810819e-09	2.959400e+00	3.487504e+00	2.407194e+00
3.777471677187293e-09	2.987711e+00	3.489548e+00	2.447778e+00
3.787639753663865e-09	3.016992e+00	3.493718e+00	2.464386e+00
3.799552292028731e-09	3.021759e+00	3.498593e+00	2.517779e+00
3.815301251623386e-09	3.033412e+00	3.511004e+00	2.549803e+00
3.829483474417697e-09	3.048297e+00	3.531599e+00	2.624194e+00
3.842377103931451e-09	3.100764e+00	3.547146e+00	2.672249e+00
3.856770245231004e-09	3.169119e+00	3.564902e+00	2.705403e+00
3.868662322206231e-09	3.240743e+00	3.558991e+00	2.769813e+00
3.879770234610618e-09	3.293446e+00	3.546329e+00	2.809677e+00
3.890854820702471e-09	3.294887e+00	3.557098e+00	2.832868e+00
3.898188691031368e-09	3.304746e+00	3.578761e+00	2.872400e+00
3.906668161628808e-09	3.320919e+00	3.605174e+00	2.888209e+00
3.915722852912333e-09	3.355087e+00	3.614235e+00	2.926718e+00
3.923137581493269e-09	3.389463e+00	3.605014e+00	2.952061e+00
3.931612967355228e-09	3.415059e+00	3.590945e+00	2.970131e+00
3.940359395395148e-09	3.430706e+00	3.584962e+00	2.980666e+00
3.950226180973745e-09	3.457763e+00	3.573329e+00	3.013185e+00
3.960104732182774e-09	3.482566e+00	3.541996e+00	3.032504e+00
3.972060001241616e-09	3.481966e+00	3.503815e+00	3.052638e+00
3.976424762890264e-09	3.478113e+00	3.492590e+00	3.069128e+00
3.980613649816987e-09	3.475091e+00	3.484346e+00	3.069331e+00
3.986266088178739e-09	3.474798e+00	3.483175e+00	3.072079e+00
3.990864110574916e-09	3.476411e+00	3.487029e+00	3.072449e+00
3.995886510194186e-09	3.479640e+00	3.493451e+00	3.072372e+00
3.997800424302552e-09	3.479573e+00	3.494787e+00	3.084400e+00
3.998931054294178e-09	3.478792e+00	3.494856e+00	3.084271e+00
4.000597061333506e-09	3.478140e+00	3.495081e+00	3.084035e+00
4.002466604750417e-09	3.478004e+00	3.495433e+00	3.083706e+00
4.006003626883158e-09	3.479011e+00	3.496069e+00	3.082900e+00
4.009212320292528e-09	3.480958e+00	3.496325e+00	3.081963e+00
4.012820493921069e-09	3.495379e+00	3.493771e+00	3.095885e+00
4.017188092562421e-09	3.520199e+00	3.487755e+00	3.094019e+00
4.021726388485235e-09	3.534181e+00	3.481646e+00	3.091732e+00
4.026345800494175e-09	3.560505e+00	3.467191e+00	3.102032e+00
4.030852487859417e-09	3.590954e+00	3.447902e+00	3.099109e+00
4.035796780027726e-09	3.602564e+00	3.430259e+00	3.104201e+00
4.040210202752552e-09	3.601920e+00	3.417057e+00	3.100790e+00
4.044690470914888e-09	3.593155e+00	3.408937e+00	3.106920e+00
4.049091814483024e-09	3.580841e+00	3.404820e+00	3.104761e+00
4.054075797705457e-09	3.569794e+00	3.400637e+00	3.100246e+00
4.060784569798127e-09	3.562972e+00	3.398902e+00	3.103315e+00
4.068801256568952e-09	3.559952e+00	3.395354e+00	3.095375e+00
4.074127426728766e-09	3.557741e+00	3.384262e+00	3.099968e+00
4.080353122057179e-09	3.555812e+00	3.365686e+00	3.093534e+00
4.087333367572950e-09	3.553213e+00	3.337844e+00	3.095458e+00
4.096654733249066e-09	3.550418e+00	3.299891e+00	3.085955e+00
4.106437191303775e-09	3.543441e+00	3.265511e+00	3.088407e+00
4.117681552733151e-09	3.541760e+00	3.230211e+00	3.084801e+00
4.128213606815810e-09	3.558759e+00	3.213378e+00	3.082226e+00
4.137157835939390e-09	3.572763e+00	3.208434e+00	3.076632e+00
4.146491904958675e-09	3.584754e+00	3.192665e+00	3.080288e+00
4.152626467229344e-09	3.594528e+00	3.171195e+00	3.082352e+00
4.160102745493248e-09	3.601430e+00	3.149451e+00	3.081383e+00
4.165813003030983e-09	3.603751e+00	3.141518e+00	3.083657e+00
4.171453880707764e-09	3.605976e+00	3.137945e+00	3.084245e+00
4.177773949313598e-09	3.610265e+00	3.135984e+00	3.086664e+00
4.187903892631607e-09	3.619273e+00	3.133618e+00	3.091779e+00
4.195614514398579e-09	3.622370e+00	3.141446e+00	3.097552e+00
4.204112315686433e-09	3.627981e+00	3.153404e+00	3.103038e+00
4.210288265260791e-09	3.639870e+00	3.149966e+00	3.108254e+00
4.215053525038323e-09	3.651153e+00	3.141008e+00	3.112598e+00
4.220866597093693e-09	3.664645e+00	3.129431e+00	3.118257e+00
4.227464572398662e-09	3.681084e+00	3.122992e+00	3.125135e+00
4.232418363332011e-09	3.691949e+00	3.123302e+00	3.130599e+00
4.237185780229411e-09	3.697397e+00	3.131574e+00	3.135975e+00
4.242532903274181e-09	3.702428e+00	3.146687e+00	3.142452e+00
4.247994243142659e-09	3.710882e+00	3.155120e+00	3.149170e+00
4.252608830502280e-09	3.720599e+00	3.156729e+00	3.154976e+00
4.258110975023191e-09	3.736926e+00	3.155792e+00	3.162015e+00
4.264629592141114e-09	3.757061e+00	3.152295e+00	3.170465e+00
4.274194225168596e-09	3.776686e+00	3.153443e+00	3.182940e+00
4.281636425901424e-09	3.789926e+00	3.158907e+00	3.192599e+00
4.289885577452445e-09	3.813103e+00	3.164437e+00	3.203101e+00
4.301273742703709e-09	3.844970e+00	3.171410e+00	3.216948e+00
4.306363430422761e-09	3.854037e+00	3.170734e+00	3.222812e+00
4.309457503193517e-09	3.857912e+00	3.174583e+00	3.226254e+00
4.310858451844903e-09	3.858759e+00	3.179640e+00	3.225426e+00
4.312307500680775e-09	3.859679e+00	3.185353e+00	3.229333e+00
4.314128031387175e-09	3.861979e+00	3.191811e+00	3.232145e+00
4.315605470457489e-09	3.863760e+00	3.197001e+00	3.232777e+00
4.317364935108151e-09	3.865446e+00	3.202987e+00	3.234100e+00
4.319464163271707e-09	3.867584e+00	3.209287e+00	3.236628e+00
4.321402319149169e-09	3.870082e+00	3.214437e+00	3.239514e+00
4.324054317023934e-09	3.873621e+00	3.219748e+00	3.240933e+00
4.326606046787281e-09	3.877225e+00	3.223332e+00	3.244610e+00
4.329770946817883e-09	3.882007e+00	3.227720e+00	3.245831e+00
4.332348394979112e-09	3.886116e+00	3.230705e+00	3.247858e+00
4.334683969049041e-09	3.890806e+00	3.230024e+00	3.249591e+00
4.336757714596306e-09	3.895626e+00	3.225495e+00	3.249880e+00
4.339406461803238e-09	3.901950e+00	3.218532e+00	3.252786e+00
4.342305595213532e-09	3.908740e+00	3.213035e+00	3.256393e+00
4.344370003862635e-09	3.913284e+00	3.209494e+00	3.255678e+00
4.346586436012204e-09	3.917897e+00	3.205937e+00	3.258286e+00
4.348965009449603e-09	3.922786e+00	3.203844e+00	3.261003e+00
4.351555445084370e-09	3.927190e+00	3.202788e+00	3.258989e+00
4.353996305975302e-09	3.930673e+00	3.202806e+00	3.261586e+00
4.356998848075258e-09	3.935287e+00	3.204576e+00	3.264648e+00
4.360697761771109e-09	3.939025e+00	3.209504e+00	3.261633e+00
