time	V(far)	V(near)	V(probe)
0.000000000000000e+00	4.535242e-06	4.535242e-06	1.662151e-04
1.000000000000000e-09	4.535242e-06	4.535242e-06	1.662151e-04
1.248610568318584e-09	4.535242e-06	4.535242e-06	1.662151e-04
1.250856815379706e-09	1.818204e-01	1.823255e-01	1.819820e-01
1.252062953409657e-09	3.632247e-01	3.646181e-01	3.633863e-01
1.252971677143996e-09	4.825790e-01	4.851462e-01	4.827406e-01
1.253948421013445e-09	5.963940e-01	6.008015e-01	5.965557e-01
1.255901908752343e-09	7.861702e-01	7.962748e-01	7.863320e-01
1.258191584004901e-09	9.557632e-01	9.761362e-01	9.559248e-01
1.261407886188026e-09	1.123409e+00	1.164550e+00	1.123571e+00
1.265048224326321e-09	1.243463e+00	1.315748e+00	1.243624e+00
1.269967081579090e-09	1.333343e+00	1.456265e+00	1.333505e+00
1.275583406772437e-09	1.377119e+00	1.562586e+00	1.377281e+00
1.282157901463292e-09	1.388111e+00	1.643031e+00	1.388273e+00
1.290011619606776e-09	1.374743e+00	1.697058e+00	1.374904e+00
1.300434028716570e-09	1.337884e+00	1.717721e+00	1.338046e+00
1.311566701226863e-09	1.287077e+00	1.695813e+00	1.287239e+00
1.322656519776007e-09	1.229571e+00	1.650356e+00	1.229732e+00
1.335857401571138e-09	1.154481e+00	1.589892e+00	1.154642e+00
1.350132623638815e-09	1.067138e+00	1.533339e+00	1.067300e+00
1.369896809013736e-09	9.398516e-01	1.478491e+00	9.400132e-01
1.398067820250191e-09	7.558697e-01	1.437847e+00	7.560314e-01
1.430082517879828e-09	5.588927e-01	1.436349e+00	5.590544e-01
1.455234070681018e-09	4.232225e-01	1.472331e+00	4.233841e-01
1.500000000000000e-09	2.404004e-01	1.627392e+00	2.405621e-01
1.513429778795695e-09	2.014779e-01	1.696244e+00	2.016396e-01
1.531336150523288e-09	1.596532e-01	1.799933e+00	1.598149e-01
1.559018541338816e-09	1.149196e-01	1.982044e+00	1.150813e-01
1.582810196463071e-09	9.072517e-02	2.152384e+00	9.088685e-02
1.603386108381963e-09	7.535420e-02	2.303057e+00	7.551588e-02
1.623400701357678e-09	6.097449e-02	2.446771e+00	6.113617e-02
1.643388428000550e-09	4.340963e-02	2.582508e+00	4.357131e-02
1.662435145549045e-09	2.079977e-02	2.700754e+00	2.096145e-02
1.682809352604988e-09	-1.212916e-02	2.811885e+00	-1.196748e-02
1.703881597595121e-09	-5.714949e-02	2.907730e+00	-5.698781e-02
1.738249707892908e-09	-1.539407e-01	3.020546e+00	-1.537790e-01
1.775387567386383e-09	-2.829294e-01	3.087070e+00	-2.827677e-01
1.815552452683262e-09	-4.297366e-01	3.112160e+00	-4.295750e-01
1.861355086743672e-09	-5.683779e-01	3.116730e+00	-5.682162e-01
1.873140946281399e-09	-5.948889e-01	3.117819e+00	-5.947272e-01
1.879009126851077e-09	-6.047165e-01	3.118936e+00	-6.059389e-01
1.881116108607384e-09	-6.066751e-01	3.119451e+00	-6.096212e-01
1.882662790326858e-09	-6.064081e-01	3.119872e+00	-6.122057e-01
1.884300540571951e-09	-6.049320e-01	3.120358e+00	-6.148314e-01
1.885852623748606e-09	-6.038776e-01	3.120858e+00	-6.172132e-01
1.887838389184958e-09	-6.001450e-01	3.121556e+00	-6.201079e-01
1.890002657814319e-09	-5.943838e-01	3.122392e+00	-6.230653e-01
1.893156472719446e-09	-5.805155e-01	3.123760e+00	-6.270013e-01
1.896467388402668e-09	-5.565137e-01	3.125394e+00	-6.306496e-01
1.898493274104039e-09	-5.435566e-01	3.126496e+00	-6.326345e-01
1.901052815902339e-09	-5.254639e-01	3.128004e+00	-6.348713e-01
1.904329648716309e-09	-5.036287e-01	3.130129e+00	-6.372873e-01
1.908266994675106e-09	-4.768947e-01	3.132977e+00	-6.395215e-01
1.912940710466726e-09	-4.498377e-01	3.136789e+00	-6.412132e-01
1.919073817524278e-09	-4.234424e-01	3.142522e+00	-6.418438e-01
1.926568656075161e-09	-3.944110e-01	3.150680e+00	-6.401484e-01
1.931350601098865e-09	-3.963405e-01	3.156556e+00	-6.376483e-01
1.936641402981204e-09	-4.052782e-01	3.163668e+00	-6.336075e-01
1.942018972105289e-09	-4.162127e-01	3.171548e+00	-6.281341e-01
1.950122559176380e-09	-4.347329e-01	3.184635e+00	-6.173488e-01
1.956505024917181e-09	-4.389615e-01	3.195936e+00	-6.067550e-01
1.962887173026558e-09	-4.406461e-01	3.208065e+00	-5.943713e-01
1.969707106570709e-09	-4.440652e-01	3.221881e+00	-5.792515e-01
1.973871621088049e-09	-4.352779e-01	3.230722e+00	-5.691032e-01
1.978283584598342e-09	-4.184242e-01	3.240395e+00	-5.576223e-01
1.981382837843485e-09	-4.091250e-01	3.247365e+00	-5.491276e-01
1.985375077878866e-09	-3.989146e-01	3.256539e+00	-5.376872e-01
1.991850214043998e-09	-3.831555e-01	3.271828e+00	-5.180097e-01
1.995494615260200e-09	-3.595958e-01	3.280630e+00	-5.063616e-01
1.999294273576918e-09	-3.259779e-01	3.289931e+00	-4.938016e-01
2.001863378518746e-09	-3.092230e-01	3.296282e+00	-4.850848e-01
2.005099885904164e-09	-2.923641e-01	3.304338e+00	-4.738624e-01
2.010699968687018e-09	-2.694797e-01	3.318385e+00	-4.538621e-01
2.016483404409935e-09	-2.495563e-01	3.332969e+00	-4.325118e-01
2.019863170166822e-09	-2.081095e-01	3.341497e+00	-4.197539e-01
2.022976530697452e-09	-1.524727e-01	3.349335e+00	-4.078304e-01
2.025090792507461e-09	-1.246989e-01	3.354642e+00	-3.996524e-01
2.027669041611544e-09	-9.855401e-02	3.361087e+00	-3.896007e-01
2.032811010544181e-09	-6.476581e-02	3.373820e+00	-3.693367e-01
2.037971388755199e-09	-4.570900e-02	3.386390e+00	-3.487686e-01
2.044113553082174e-09	-3.053102e-02	3.400984e+00	-3.240988e-01
2.050908125739234e-09	-1.521388e-02	3.416539e+00	-2.967220e-01
2.054367776007801e-09	3.913649e-02	3.424181e+00	-2.828039e-01
2.057843147331359e-09	1.174462e-01	3.431639e+00	-2.688597e-01
2.059975309947270e-09	1.472154e-01	3.436100e+00	-2.603370e-01
2.062647958524107e-09	1.739659e-01	3.441557e+00	-2.496991e-01
2.066655758659265e-09	1.989273e-01	3.449444e+00	-2.338638e-01
2.072262723451337e-09	2.160693e-01	3.459832e+00	-2.120061e-01
2.078318188080826e-09	2.242263e-01	3.470130e+00	-1.888815e-01
2.082312414037349e-09	2.669860e-01	3.476361e+00	-1.739550e-01
2.086394380068316e-09	3.319691e-01	3.482233e+00	-1.590038e-01
2.089267167159768e-09	3.587181e-01	3.486053e+00	-1.486837e-01
2.092773138752652e-09	3.783728e-01	3.490350e+00	-1.363349e-01
2.098540422700657e-09	3.931306e-01	3.496506e+00	-1.166593e-01
2.104711779495025e-09	3.977253e-01	3.501785e+00	-9.655754e-02
2.113058810244387e-09	4.019848e-01	3.506651e+00	-7.109600e-02
2.122956201389314e-09	4.141996e-01	3.508869e+00	-4.371617e-02
2.127617054926566e-09	5.127886e-01	3.508536e+00	-3.194665e-02
2.132302378348611e-09	6.647066e-01	3.507288e+00	-2.087505e-02
2.135049574666068e-09	7.320234e-01	3.506127e+00	-1.474687e-02
2.138957324173538e-09	7.983068e-01	3.503922e+00	-6.502291e-03
2.146772823188478e-09	8.276653e-01	3.497560e+00	8.290825e-03
2.151766788830727e-09	8.138717e-01	3.492129e+00	1.654521e-02
2.156592993688778e-09	8.326496e-01	3.485873e+00	2.362486e-02
2.161658420196467e-09	8.692945e-01	3.478249e+00	3.010419e-02
2.166342083643882e-09	8.735651e-01	3.470248e+00	3.523044e-02
2.171486078764665e-09	8.635420e-01	3.460424e+00	3.991029e-02
2.179140884119289e-09	8.411298e-01	3.443852e+00	4.506361e-02
2.184619238581998e-09	8.933710e-01	3.430598e+00	4.744953e-02
2.190039091137465e-09	9.749367e-01	3.416391e+00	4.877245e-02
2.194270267090501e-09	9.966065e-01	3.404572e+00	4.911009e-02
2.199068961190365e-09	9.992109e-01	3.390429e+00	4.878284e-02
2.205807510853127e-09	9.860566e-01	3.369321e+00	4.710994e-02
2.211232878503354e-09	1.034281e+00	3.351331e+00	4.478810e-02
2.216694663779290e-09	1.109161e+00	3.332398e+00	4.162981e-02
2.221371648095382e-09	1.127591e+00	3.315582e+00	3.831682e-02
2.226569507968406e-09	1.124801e+00	3.296300e+00	3.403014e-02
2.231923844626238e-09	1.158764e+00	3.275855e+00	2.901017e-02
2.237425380823394e-09	1.210039e+00	3.254309e+00	2.327820e-02
2.243102398686355e-09	1.217667e+00	3.231592e+00	1.683534e-02
2.249192189868158e-09	1.247333e+00	3.206788e+00	9.427364e-03
2.255035679856741e-09	1.284628e+00	3.182667e+00	1.927696e-03
2.262282477875592e-09	1.282542e+00	3.152493e+00	-7.747270e-03
2.268865561170618e-09	1.314715e+00	3.124984e+00	-1.675211e-02
2.275618161255574e-09	1.362408e+00	3.096841e+00	-2.605182e-02
2.286529638003801e-09	1.422831e+00	3.051975e+00	-4.078973e-02
2.298325268129530e-09	1.495644e+00	3.004966e+00	-5.573339e-02
2.316171977660576e-09	1.564195e+00	2.938624e+00	-7.469784e-02
2.335749753733273e-09	1.663317e+00	2.874897e+00	-8.823604e-02
2.356253915954163e-09	1.721556e+00	2.820986e+00	-9.185673e-02
2.374143283047830e-09	1.881712e+00	2.786182e+00	-8.487607e-02
2.392350744811969e-09	2.051063e+00	2.763165e+00	-6.757443e-02
2.412637394647462e-09	2.212553e+00	2.752043e+00	-3.659667e-02
2.439551566655801e-09	2.518760e+00	2.758414e+00	2.063274e-02
2.461515152537808e-09	2.649587e+00	2.778208e+00	7.741511e-02
2.483688339646532e-09	2.771477e+00	2.806925e+00	1.390837e-01
2.510570013999100e-09	3.043627e+00	2.844707e+00	2.121938e-01
2.537641834980934e-09	3.299988e+00	2.910369e+00	2.754425e-01
2.567093169521120e-09	3.464915e+00	2.899001e+00	3.228409e-01
2.602064645236262e-09	3.639984e+00	2.793040e+00	3.427650e-01
2.630102815549853e-09	3.736748e+00	2.842606e+00	3.291421e-01
2.659161706564176e-09	3.795849e+00	2.912795e+00	2.878745e-01
2.688379213708453e-09	3.814809e+00	2.821417e+00	2.218149e-01
2.717680640278901e-09	3.802456e+00	2.689487e+00	1.401998e-01
2.741728081992185e-09	3.778393e+00	2.603621e+00	7.108416e-02
2.761123156477116e-09	3.755648e+00	2.597503e+00	1.956360e-02
2.782983669432047e-09	3.730865e+00	2.599401e+00	-2.977138e-02
2.803470937070224e-09	3.711384e+00	2.550243e+00	-6.497529e-02
2.824162496483122e-09	3.698055e+00	2.555243e+00	-8.738509e-02
2.845149607075218e-09	3.692427e+00	2.592561e+00	-9.562303e-02
2.875624441083552e-09	3.697591e+00	2.605584e+00	-8.333803e-02
2.903679830240746e-09	3.713412e+00	2.695508e+00	-5.062412e-02
2.923406512842232e-09	3.727985e+00	2.792308e+00	-1.891158e-02
2.939652585245042e-09	3.727694e+00	2.834135e+00	9.736152e-03
2.956403297735424e-09	3.741811e+00	2.863999e+00	3.925047e-02
2.974766680035286e-09	3.763201e+00	2.918095e+00	6.923345e-02
3.000019590876773e-09	3.752297e+00	3.008214e+00	1.017985e-01
3.026395963418225e-09	3.723801e+00	3.148383e+00	1.192058e-01
3.055996457300062e-09	3.664557e+00	3.205465e+00	1.117756e-01
3.086992888061634e-09	3.568817e+00	3.159088e+00	7.154059e-02
3.116552028893602e-09	3.450572e+00	3.174003e+00	6.695743e-03
3.143643017924969e-09	3.328271e+00	3.206392e+00	-6.896140e-02
3.171069803191762e-09	3.203768e+00	3.246940e+00	-1.543442e-01
3.196950401129168e-09	3.061912e+00	3.191889e+00	-2.357615e-01
3.217572597542044e-09	2.963727e+00	3.086649e+00	-2.954801e-01
3.238270612026657e-09	2.855146e+00	3.153455e+00	-3.456226e-01
3.254452261222215e-09	2.819064e+00	3.285370e+00	-3.762320e-01
3.270951122472485e-09	2.837340e+00	3.285382e+00	-3.994023e-01
3.283370898867602e-09	2.837454e+00	3.262595e+00	-4.114372e-01
3.297959342122955e-09	2.814138e+00	3.261778e+00	-4.192573e-01
3.311227123655666e-09	2.766857e+00	3.243340e+00	-4.201685e-01
3.326694154812973e-09	2.705893e+00	3.299927e+00	-4.137497e-01
3.341308143725435e-09	2.674707e+00	3.375070e+00	-4.007767e-01
3.353995234452130e-09	2.669194e+00	3.433223e+00	-3.848417e-01
3.368502491258951e-09	2.675091e+00	3.519564e+00	-3.625142e-01
3.384468829733411e-09	2.708929e+00	3.533664e+00	-3.344203e-01
3.398903556111407e-09	2.768121e+00	3.573225e+00	-3.071108e-01
3.410681167703241e-09	2.821650e+00	3.643767e+00	-2.842926e-01
3.420307838415070e-09	2.836079e+00	3.669534e+00	-2.658086e-01
3.427024516477878e-09	2.830959e+00	3.691094e+00	-2.532293e-01
3.435216029290111e-09	2.823126e+00	3.724975e+00	-2.384650e-01
3.442872283582163e-09	2.822298e+00	3.736142e+00	-2.254045e-01
3.448877663000635e-09	2.830380e+00	3.748468e+00	-2.157605e-01
3.455787031202750e-09	2.845475e+00	3.769642e+00	-2.054151e-01
3.462540831283411e-09	2.853326e+00	3.779930e+00	-1.961593e-01
3.469464087193287e-09	2.867271e+00	3.794330e+00	-1.876316e-01
3.478562982677268e-09	2.885678e+00	3.817545e+00	-1.780273e-01
3.483123679932486e-09	2.886533e+00	3.822518e+00	-1.739336e-01
3.486263413431070e-09	2.885414e+00	3.823534e+00	-1.714076e-01
3.489624136273058e-09	2.883385e+00	3.823276e+00	-1.689730e-01
3.496345581957033e-09	2.878186e+00	3.820863e+00	-1.649488e-01
3.501186930889969e-09	2.873260e+00	3.828141e+00	-1.627516e-01
3.506020775177771e-09	2.868083e+00	3.841272e+00	-1.611469e-01
3.511654906100541e-09	2.863204e+00	3.848553e+00	-1.600239e-01
3.516233163983978e-09	2.859837e+00	3.849822e+00	-1.597058e-01
3.522948457426188e-09	2.855384e+00	3.847205e+00	-1.601967e-01
3.529188807093640e-09	2.864733e+00	3.852574e+00	-1.616572e-01
3.533198837868461e-09	2.875071e+00	3.859663e+00	-1.630962e-01
3.537944975393162e-09	2.878684e+00	3.862144e+00	-1.652935e-01
3.540376310186747e-09	2.878071e+00	3.861396e+00	-1.666234e-01
3.542761030166534e-09	2.876444e+00	3.859654e+00	-1.680594e-01
3.545273662995153e-09	2.873927e+00	3.856949e+00	-1.697108e-01
3.550053744641548e-09	2.883338e+00	3.854381e+00	-1.732319e-01
3.555623466873391e-09	2.899826e+00	3.852192e+00	-1.779366e-01
3.562798306046280e-09	2.896749e+00	3.842359e+00	-1.848840e-01
3.570858366874026e-09	2.880853e+00	3.829750e+00	-1.937608e-01
3.578542923882175e-09	2.862301e+00	3.817175e+00	-2.031384e-01
3.593241055496356e-09	2.828108e+00	3.788989e+00	-2.228914e-01
3.606037384424588e-09	2.810188e+00	3.768865e+00	-2.413496e-01
3.622467717117339e-09	2.789924e+00	3.739095e+00	-2.653194e-01
3.634094520163490e-09	2.799742e+00	3.702191e+00	-2.816693e-01
3.648467847187835e-09	2.809287e+00	3.659403e+00	-2.999803e-01
3.661678338418082e-09	2.821518e+00	3.628827e+00	-3.140144e-01
3.675452786260023e-09	2.832999e+00	3.603838e+00	-3.248308e-01
3.688236041949476e-09	2.817857e+00	3.582444e+00	-3.307182e-01
3.706586225146718e-09	2.809739e+00	3.558130e+00	-3.311742e-01
3.726475809321205e-09	2.803492e+00	3.530479e+00	-3.201585e-01
3.741829946295544e-09	2.843755e+00	3.505006e+00	-3.031316e-01
3.756054242984005e-09	2.895094e+00	3.508774e+00	-2.807627e-01
3.770201393709390e-09	2.966572e+00	3.508647e+00	-2.525753e-01
3.784462000161168e-09	3.034865e+00	3.508920e+00	-2.187891e-01
3.799431143352172e-09	3.107068e+00	3.511094e+00	-1.784050e-01
3.819735654784435e-09	3.192508e+00	3.525816e+00	-1.176839e-01
3.835600629171609e-09	3.203800e+00	3.528724e+00	-6.717949e-02
3.848598669322672e-09	3.230192e+00	3.514820e+00	-2.506421e-02
3.861518560717030e-09	3.279235e+00	3.534551e+00	1.648719e-02
3.869501536625769e-09	3.357712e+00	3.549513e+00	4.164214e-02
3.878383180819346e-09	3.449573e+00	3.560880e+00	6.878836e-02
3.888936944605533e-09	3.542211e+00	3.565798e+00	9.946889e-02
3.899473043372625e-09	3.606998e+00	3.573734e+00	1.279497e-01
3.910051182966588e-09	3.597265e+00	3.582497e+00	1.539677e-01
3.922001433883768e-09	3.589190e+00	3.577805e+00	1.798168e-01
3.931276976848346e-09	3.597809e+00	3.557849e+00	1.970761e-01
3.940080157262624e-09	3.608795e+00	3.517780e+00	2.110803e-01
3.950269444893226e-09	3.628321e+00	3.491625e+00	2.243755e-01
3.955833443278178e-09	3.653036e+00	3.479153e+00	2.303203e-01
3.962713312725941e-09	3.687357e+00	3.461809e+00	2.363856e-01
3.971238684935021e-09	3.732861e+00	3.445284e+00	2.419357e-01
3.976146058804064e-09	3.765320e+00	3.435548e+00	2.441471e-01
3.978483451703050e-09	3.778181e+00	3.433865e+00	2.449488e-01
3.980282912300961e-09	3.784179e+00	3.433931e+00	2.454556e-01
3.982790145006749e-09	3.787416e+00	3.435799e+00	2.460032e-01
3.986239108825762e-09	3.789302e+00	3.439170e+00	2.464544e-01
3.989236095170657e-09	3.789301e+00	3.442240e+00	2.465632e-01
3.991972834127696e-09	3.788492e+00	3.444702e+00	2.464330e-01
3.995086907097770e-09	3.797003e+00	3.442854e+00	2.460206e-01
3.998383934183243e-09	3.812042e+00	3.436789e+00	2.452775e-01
4.001959138127723e-09	3.820324e+00	3.431074e+00	2.441210e-01
4.008589825004136e-09	3.823223e+00	3.421044e+00	2.410369e-01
4.016951506038123e-09	3.808302e+00	3.409061e+00	2.354833e-01
4.029735118731896e-09	3.788879e+00	3.384088e+00	2.237176e-01
4.044213095696889e-09	3.802116e+00	3.343862e+00	2.062811e-01
4.054579327881676e-09	3.808984e+00	3.299170e+00	1.916306e-01
4.063620415631698e-09	3.808751e+00	3.242160e+00	1.778061e-01
4.073746280119176e-09	3.803344e+00	3.177812e+00	1.616649e-01
4.079894119900061e-09	3.797430e+00	3.149884e+00	1.517301e-01
4.084526203332585e-09	3.795954e+00	3.137370e+00	1.442719e-01
4.090907976159809e-09	3.793470e+00	3.124935e+00	1.341243e-01
4.097584606802138e-09	3.790285e+00	3.110915e+00	1.237467e-01
4.105769423016480e-09	3.790918e+00	3.098579e+00	1.114887e-01
4.113155103495310e-09	3.791513e+00	3.088928e+00	1.009806e-01
4.119976563422939e-09	3.787079e+00	3.072489e+00	9.184485e-02
4.127890803048348e-09	3.782362e+00	3.048514e+00	8.206571e-02
4.136266999175119e-09	3.787627e+00	3.022335e+00	7.284018e-02
4.145945445772970e-09	3.797660e+00	2.997213e+00	6.385608e-02
4.151464531524951e-09	3.800148e+00	2.985537e+00	5.961778e-02
4.156257260607396e-09	3.803172e+00	2.976768e+00	5.649902e-02
4.161517026293716e-09	3.810014e+00	2.975019e+00	5.369845e-02
4.167737418049118e-09	3.818856e+00	2.979956e+00	5.124111e-02
4.173372142337268e-09	3.823882e+00	2.978644e+00	4.981754e-02
4.179492146313006e-09	3.828420e+00	2.973692e+00	4.913151e-02
4.185156991297322e-09	3.833505e+00	2.976246e+00	4.928802e-02
4.196486681265955e-09	3.842545e+00	2.977051e+00	5.182677e-02
4.202688069796107e-09	3.846498e+00	2.964766e+00	5.444698e-02
4.209504447360895e-09	3.853666e+00	2.951279e+00	5.830177e-02
4.216792837094791e-09	3.866099e+00	2.947073e+00	6.353328e-02
4.224418989692209e-09	3.878718e+00	2.944507e+00	7.020007e-02
4.233016996614644e-09	3.893325e+00	2.943839e+00	7.910112e-02
4.240840686690070e-09	3.910852e+00	2.952554e+00	8.837971e-02
4.248056764162122e-09	3.927115e+00	2.967843e+00	9.782659e-02
4.256092152262991e-09	3.945585e+00	2.987600e+00	1.091946e-01
4.265247759478048e-09	3.959010e+00	3.006368e+00	1.230029e-01
4.274000205750534e-09	3.965502e+00	3.031435e+00	1.367987e-01
4.282555729781182e-09	3.975683e+00	3.049754e+00	1.505839e-01
4.288529890903394e-09	3.988365e+00	3.051434e+00	1.602587e-01
4.296259676828669e-09	4.012657e+00	3.055663e+00	1.726810e-01
4.303701014148004e-09	4.031474e+00	3.072415e+00	1.844111e-01
4.310929412249569e-09	4.047159e+00	3.094568e+00	1.954527e-01
4.318003765545975e-09	4.061324e+00	3.098537e+00	2.057883e-01
4.323533483544218e-09	4.071110e+00	3.094331e+00	2.134657e-01
4.329945103049539e-09	4.085623e+00	3.096659e+00	2.218495e-01
4.334329357526370e-09	4.090453e+00	3.100579e+00	2.272307e-01
4.339363079039591e-09	4.092822e+00	3.106673e+00	2.330211e-01
4.344697476888697e-09	4.100515e+00	3.115962e+00	2.386684e-01
4.347562126618864e-09	4.105734e+00	3.121720e+00	2.414808e-01
4.350825732858945e-09	4.111959e+00	3.128587e+00	2.444855e-01
4.354457455370617e-09	4.111625e+00	3.134344e+00	2.475679e-01
4.357407278295335e-09	4.107425e+00	3.137755e+00	2.498613e-01
4.360549504000662e-09	4.106662e+00	3.142069e+00	2.520882e-01
4.366833955411315e-09	4.101083e+00	3.151819e+00	2.558393e-01
4.373291287811995e-09	4.096273e+00	3.162297e+00	2.586729e-01
4.378338647535574e-09	4.094337e+00	3.180392e+00	2.601309e-01
4.382252556652285e-09	4.092844e+00	3.198606e+00	2.607854e-01
4.386603720715192e-09	4.096515e+00	3.211739e+00	2.610060e-01
4.388568420011212e-09	4.098884e+00	3.215688e+00	2.609268e-01
4.390891800775987e-09	4.101889e+00	3.219023e+00	2.606865e-01
4.393281881575193e-09	4.105031e+00	3.221136e+00	2.602718e-01
4.396566257089808e-09	4.104734e+00	3.221997e+00	2.594222e-01
4.400140238122091e-09	4.101139e+00	3.220896e+00	2.581287e-01
4.404624958857601e-09	4.100189e+00	3.217868e+00	2.559616e-01
4.407725858587689e-09	4.094534e+00	3.222393e+00	2.541103e-01
4.409715515091439e-09	4.088336e+00	3.228926e+00	2.527719e-01
4.412409836566551e-09	4.082989e+00	3.235066e+00	2.507721e-01
4.414056625242516e-09	4.080899e+00	3.237469e+00	2.494439e-01
4.416343423448594e-09	4.079005e+00	3.239348e+00	2.474667e-01
4.418624007377826e-09	4.077954e+00	3.239744e+00	2.453413e-01
4.422460785626983e-09	4.077202e+00	3.237789e+00	2.414225e-01
4.426583998647358e-09	4.068768e+00	3.227544e+00	2.367365e-01
4.430451049732543e-09	4.056542e+00	3.212984e+00	2.319058e-01
4.434492134794532e-09	4.049256e+00	3.200351e+00	2.264218e-01
4.437772334677298e-09	4.045695e+00	3.192034e+00	2.216550e-01
4.441370396075517e-09	4.042926e+00	3.184762e+00	2.161155e-01
4.443733298857137e-09	4.034788e+00	3.185157e+00	2.123060e-01
4.445227142779175e-09	4.026424e+00	3.188093e+00	2.098304e-01
