time	V(far)	V(near)	V(probe)
0.000000000000000e+00	4.535242e-06	4.535242e-06	1.662151e-04
1.000000000000000e-09	4.535242e-06	4.535242e-06	1.662151e-04
1.248610568318584e-09	4.535242e-06	4.535242e-06	1.662151e-04
1.250856815379706e-09	3.698932e-01	3.703337e-01	3.700549e-01
1.252091946590308e-09	7.174253e-01	7.186518e-01	7.175871e-01
1.252905355203743e-09	8.880875e-01	8.901816e-01	8.882492e-01
1.253811988128627e-09	1.038081e+00	1.041509e+00	1.038243e+00
1.255485971509808e-09	1.234529e+00	1.241461e+00	1.234691e+00
1.257397245907439e-09	1.370249e+00	1.382787e+00	1.370411e+00
1.259999239746479e-09	1.468809e+00	1.491400e+00	1.468971e+00
1.262738638151766e-09	1.514876e+00	1.550447e+00	1.515038e+00
1.266502186406792e-09	1.536977e+00	1.592867e+00	1.537138e+00
1.270945362452511e-09	1.538790e+00	1.620067e+00	1.538951e+00
1.276968593397260e-09	1.529076e+00	1.643095e+00	1.529237e+00
1.283977927504808e-09	1.512564e+00	1.658184e+00	1.512726e+00
1.293817766137549e-09	1.485169e+00	1.660385e+00	1.485331e+00
1.303742486504358e-09	1.453203e+00	1.643437e+00	1.453365e+00
1.314435098182195e-09	1.414284e+00	1.611529e+00	1.414446e+00
1.326409141708845e-09	1.365870e+00	1.569240e+00	1.366032e+00
1.339891440197212e-09	1.306389e+00	1.522381e+00	1.306551e+00
1.357171015468986e-09	1.224814e+00	1.469569e+00	1.224976e+00
1.379154967676749e-09	1.117142e+00	1.414564e+00	1.117304e+00
1.409373043979103e-09	9.732288e-01	1.360723e+00	9.733905e-01
1.447344532708071e-09	8.184299e-01	1.340451e+00	8.185916e-01
1.500000000000000e-09	6.794990e-01	1.423741e+00	6.796607e-01
1.505568817519088e-09	6.706144e-01	1.440636e+00	6.707760e-01
1.511137635038176e-09	6.627128e-01	1.458794e+00	6.628745e-01
1.516706452557265e-09	6.557942e-01	1.478213e+00	6.559559e-01
1.522275270076353e-09	6.498587e-01	1.498893e+00	6.500203e-01
1.527844087595441e-09	6.449062e-01	1.520836e+00	6.450678e-01
1.533412905114529e-09	6.409367e-01	1.544040e+00	6.410983e-01
1.538981722633617e-09	6.379502e-01	1.568506e+00	6.381119e-01
1.578270387965137e-09	6.312118e-01	1.760956e+00	6.313735e-01
1.622273052818311e-09	6.329755e-01	1.994851e+00	6.331371e-01
1.670883754022912e-09	6.011934e-01	2.224294e+00	6.013551e-01
1.716208443564250e-09	5.091820e-01	2.374705e+00	5.093437e-01
1.771588756792779e-09	3.098679e-01	2.462402e+00	3.100295e-01
1.792121588555803e-09	2.164915e-01	2.471586e+00	2.166532e-01
1.819419576738755e-09	8.663829e-02	2.473598e+00	8.679998e-02
1.844920931082487e-09	-3.230701e-02	2.472580e+00	-3.214533e-02
1.871185245345934e-09	-1.428271e-01	2.477535e+00	-1.426654e-01
1.877552094747477e-09	-1.664181e-01	2.480427e+00	-1.667974e-01
1.880398720926220e-09	-1.755019e-01	2.482014e+00	-1.771640e-01
1.881965727953891e-09	-1.796030e-01	2.482971e+00	-1.827536e-01
1.883503055336163e-09	-1.828435e-01	2.483968e+00	-1.881547e-01
1.885129801217487e-09	-1.853684e-01	2.485088e+00	-1.937794e-01
1.887084103200561e-09	-1.883340e-01	2.486525e+00	-2.004112e-01
1.889898213426910e-09	-1.899448e-01	2.488770e+00	-2.097157e-01
1.892521484300160e-09	-1.875766e-01	2.491057e+00	-2.181230e-01
1.894525938986133e-09	-1.864375e-01	2.492934e+00	-2.243704e-01
1.896975045635066e-09	-1.839572e-01	2.495383e+00	-2.317927e-01
1.900275911780387e-09	-1.809752e-01	2.498960e+00	-2.414203e-01
1.904238121684966e-09	-1.767401e-01	2.503685e+00	-2.523980e-01
1.910335292496619e-09	-1.669101e-01	2.511904e+00	-2.680209e-01
1.913484900593681e-09	-1.676187e-01	2.516609e+00	-2.754773e-01
1.917578559078967e-09	-1.762156e-01	2.523203e+00	-2.845317e-01
1.920096255552200e-09	-1.799304e-01	2.527530e+00	-2.897429e-01
1.923168353785259e-09	-1.825662e-01	2.533093e+00	-2.957218e-01
1.925987291137465e-09	-1.864263e-01	2.538473e+00	-3.008462e-01
1.929884454192447e-09	-1.932333e-01	2.546349e+00	-3.073472e-01
1.934322737340772e-09	-2.058516e-01	2.555936e+00	-3.139302e-01
1.938850209558574e-09	-2.209866e-01	2.566393e+00	-3.197446e-01
1.942853113224023e-09	-2.326853e-01	2.576207e+00	-3.241349e-01
1.947121103478006e-09	-2.431976e-01	2.587253e+00	-3.280329e-01
1.952387668769712e-09	-2.545319e-01	2.601699e+00	-3.317523e-01
1.958124975228396e-09	-2.644003e-01	2.618440e+00	-3.344441e-01
1.965463953155921e-09	-2.702571e-01	2.641326e+00	-3.358847e-01
1.973601578864818e-09	-2.710296e-01	2.668534e+00	-3.349363e-01
1.980523543418801e-09	-2.718220e-01	2.693095e+00	-3.321255e-01
1.984323936332345e-09	-2.640961e-01	2.707097e+00	-3.298430e-01
1.988613406505922e-09	-2.502284e-01	2.723309e+00	-3.266549e-01
1.991291715973589e-09	-2.445533e-01	2.733639e+00	-3.243510e-01
1.994599386489765e-09	-2.393197e-01	2.746604e+00	-3.211878e-01
1.999984952341759e-09	-2.329179e-01	2.768162e+00	-3.153245e-01
2.003048711339088e-09	-2.198949e-01	2.780657e+00	-3.116203e-01
2.006053867910175e-09	-2.008433e-01	2.793060e+00	-3.077306e-01
2.008086457844602e-09	-1.914458e-01	2.801524e+00	-3.049661e-01
2.010705122976245e-09	-1.823255e-01	2.812512e+00	-3.012535e-01
2.015381120632190e-09	-1.714936e-01	2.832337e+00	-2.942289e-01
2.020316782914546e-09	-1.644392e-01	2.853503e+00	-2.863087e-01
2.026700042685119e-09	-1.575017e-01	2.881144e+00	-2.753966e-01
2.033622887773305e-09	-1.496598e-01	2.911321e+00	-2.628509e-01
2.037327070835455e-09	-1.241017e-01	2.927502e+00	-2.558967e-01
2.040746106717856e-09	-8.878337e-02	2.942426e+00	-2.493467e-01
2.042801357966399e-09	-7.410136e-02	2.951382e+00	-2.453618e-01
2.045518175149383e-09	-5.988156e-02	2.963195e+00	-2.400502e-01
2.050338244104104e-09	-4.431322e-02	2.984045e+00	-2.305371e-01
2.055130817821138e-09	-3.629139e-02	3.004591e+00	-2.210117e-01
2.061530613673235e-09	-3.018961e-02	3.031637e+00	-2.082966e-01
2.068277180440004e-09	-2.489845e-02	3.059532e+00	-1.950343e-01
2.071573681293015e-09	7.534653e-03	3.072891e+00	-1.886595e-01
2.074890002316206e-09	5.566473e-02	3.086122e+00	-1.823265e-01
2.076860495920737e-09	7.313325e-02	3.093878e+00	-1.786144e-01
2.079369830787044e-09	8.885490e-02	3.103634e+00	-1.739495e-01
2.083150693593342e-09	1.027431e-01	3.118061e+00	-1.670694e-01
2.088530650595263e-09	1.101206e-01	3.137978e+00	-1.576331e-01
2.094211931733461e-09	1.100905e-01	3.158168e+00	-1.481867e-01
2.101444364220333e-09	1.071251e-01	3.182494e+00	-1.370583e-01
2.110120593994429e-09	1.053688e-01	3.209454e+00	-1.252302e-01
2.122533083616551e-09	1.100545e-01	3.243386e+00	-1.116385e-01
2.127320883711665e-09	1.729856e-01	3.254933e+00	-1.075388e-01
2.132125874700975e-09	2.691602e-01	3.265610e+00	-1.041034e-01
2.134726524593719e-09	3.016725e-01	3.270999e+00	-1.025391e-01
2.138126943102419e-09	3.278851e-01	3.277627e+00	-1.008140e-01
2.142365021720035e-09	3.505072e-01	3.285216e+00	-9.918264e-02
2.146926645088744e-09	3.677998e-01	3.292540e+00	-9.807819e-02
2.154526493872804e-09	3.628294e-01	3.302778e+00	-9.776542e-02
2.162003388275315e-09	3.358719e-01	3.310442e+00	-9.933809e-02
2.167144132897195e-09	3.428126e-01	3.314327e+00	-1.015063e-01
2.172655263915226e-09	3.635687e-01	3.317248e+00	-1.048042e-01
2.177012825725886e-09	3.615505e-01	3.318654e+00	-1.081187e-01
2.181967414898803e-09	3.503135e-01	3.319301e+00	-1.126319e-01
2.188985946616211e-09	3.287795e-01	3.318523e+00	-1.203440e-01
2.198016914567191e-09	3.019569e-01	3.314709e+00	-1.324393e-01
2.203922941095693e-09	3.448475e-01	3.310575e+00	-1.416054e-01
2.209289572872188e-09	4.065785e-01	3.305756e+00	-1.507322e-01
2.213069673458304e-09	4.200049e-01	3.301783e+00	-1.575916e-01
2.217469519003264e-09	4.191539e-01	3.296587e+00	-1.659935e-01
2.223431069777165e-09	4.035718e-01	3.288623e+00	-1.780390e-01
2.231023981233692e-09	3.754491e-01	3.277070e+00	-1.943594e-01
2.240771177069459e-09	3.413784e-01	3.260215e+00	-2.166332e-01
2.246305539699557e-09	4.032477e-01	3.249760e+00	-2.298174e-01
2.251795167979533e-09	4.935297e-01	3.238868e+00	-2.431713e-01
2.255508734293016e-09	5.104334e-01	3.231244e+00	-2.523222e-01
2.259761683569369e-09	5.093954e-01	3.222302e+00	-2.628778e-01
2.265206210300311e-09	4.913772e-01	3.210589e+00	-2.764477e-01
2.273130120481631e-09	4.539113e-01	3.193174e+00	-2.961472e-01
2.282469318675140e-09	4.122832e-01	3.172402e+00	-3.189867e-01
2.295751048259628e-09	3.742263e-01	3.143215e+00	-3.499657e-01
2.303557147423706e-09	4.656538e-01	3.126610e+00	-3.670032e-01
2.311260854474768e-09	5.815737e-01	3.110923e+00	-3.826784e-01
2.316690098317311e-09	5.924985e-01	3.100393e+00	-3.929407e-01
2.322566740433664e-09	5.805329e-01	3.089582e+00	-4.032235e-01
2.329123752764035e-09	5.580007e-01	3.078336e+00	-4.135906e-01
2.339865796532767e-09	5.264341e-01	3.062052e+00	-4.277895e-01
2.348003853890162e-09	6.028603e-01	3.051665e+00	-4.360684e-01
2.355699764106219e-09	7.011186e-01	3.043544e+00	-4.417928e-01
2.362063141478455e-09	7.142907e-01	3.038152e+00	-4.449108e-01
2.368797251193318e-09	7.072926e-01	3.033805e+00	-4.465681e-01
2.376480787559651e-09	6.961012e-01	3.030601e+00	-4.463556e-01
2.389233168320826e-09	6.948518e-01	3.029488e+00	-4.410084e-01
2.399585006132103e-09	8.276260e-01	3.032439e+00	-4.321038e-01
2.409001894126565e-09	9.668989e-01	3.038059e+00	-4.205492e-01
2.418856000410014e-09	1.032308e+00	3.046802e+00	-4.050822e-01
2.428736661005786e-09	1.078342e+00	3.058312e+00	-3.863282e-01
2.439522226952163e-09	1.088422e+00	3.073708e+00	-3.624787e-01
2.448933938676793e-09	1.163245e+00	3.089266e+00	-3.390978e-01
2.458826681994139e-09	1.259943e+00	3.107389e+00	-3.123381e-01
2.471568814348232e-09	1.356207e+00	3.132744e+00	-2.752661e-01
2.487415372437812e-09	1.459724e+00	3.166127e+00	-2.264715e-01
2.509556623898099e-09	1.635965e+00	3.209813e+00	-1.569302e-01
2.534332856222350e-09	1.873796e+00	3.267885e+00	-8.312512e-02
2.555492141650547e-09	2.007613e+00	3.299848e+00	-2.841429e-02
2.576754603011493e-09	2.150384e+00	3.275747e+00	1.501724e-02
2.597874764776257e-09	2.282676e+00	3.254849e+00	4.482610e-02
2.625639076464822e-09	2.434508e+00	3.275299e+00	6.234764e-02
2.656608958061061e-09	2.570682e+00	3.257393e+00	5.285404e-02
2.681833906092795e-09	2.656761e+00	3.193965e+00	2.489821e-02
2.701593458450550e-09	2.711415e+00	3.120858e+00	-6.463847e-03
2.719935347673010e-09	2.755177e+00	3.052653e+00	-3.975873e-02
2.738770120784463e-09	2.796454e+00	2.976904e+00	-7.469049e-02
2.762248079042321e-09	2.847612e+00	2.935246e+00	-1.142171e-01
2.786146068322462e-09	2.903829e+00	2.895384e+00	-1.452378e-01
2.811402106193974e-09	2.972795e+00	2.777780e+00	-1.627509e-01
2.828524664357406e-09	3.027738e+00	2.702543e+00	-1.630325e-01
2.846172186685285e-09	3.092736e+00	2.759073e+00	-1.520310e-01
2.862409058601254e-09	3.159290e+00	2.839640e+00	-1.325110e-01
2.877714119927633e-09	3.226472e+00	2.845934e+00	-1.073332e-01
2.892796442638927e-09	3.295647e+00	2.859324e+00	-7.733472e-02
2.907903227883832e-09	3.366899e+00	2.830327e+00	-4.312048e-02
2.922733271828485e-09	3.438011e+00	2.798525e+00	-6.232772e-03
2.935519301823066e-09	3.499591e+00	2.857818e+00	2.753173e-02
2.949393384365423e-09	3.565254e+00	2.966058e+00	6.476998e-02
2.961328116556718e-09	3.619426e+00	2.986327e+00	9.594196e-02
2.973820909410591e-09	3.672875e+00	2.930203e+00	1.267376e-01
2.982507982867681e-09	3.707868e+00	2.949503e+00	1.468282e-01
2.991800299589167e-09	3.743011e+00	3.022456e+00	1.667941e-01
2.999258202540075e-09	3.769196e+00	3.039207e+00	1.813635e-01
3.007573773174588e-09	3.795988e+00	3.027788e+00	1.957911e-01
3.018264825864788e-09	3.826555e+00	3.001636e+00	2.113634e-01
3.032389089541612e-09	3.860007e+00	3.032965e+00	2.265375e-01
3.045590526994732e-09	3.883602e+00	3.096270e+00	2.345988e-01
3.059562811018286e-09	3.899769e+00	3.106781e+00	2.359150e-01
3.074091011779781e-09	3.906876e+00	3.041131e+00	2.292797e-01
3.085991941266330e-09	3.905781e+00	3.018888e+00	2.181862e-01
3.098824831149652e-09	3.898161e+00	3.036531e+00	2.010206e-01
3.112907169722390e-09	3.882499e+00	3.035800e+00	1.763326e-01
3.128191739141305e-09	3.865444e+00	3.013003e+00	1.433062e-01
3.151528625730454e-09	3.812282e+00	2.969678e+00	8.342579e-02
3.165568221233499e-09	3.769449e+00	2.980692e+00	4.341030e-02
3.182052165967383e-09	3.726300e+00	2.953924e+00	-5.510459e-03
3.187908117041173e-09	3.711581e+00	2.925075e+00	-2.312951e-02
3.193512194505365e-09	3.699914e+00	2.893580e+00	-3.991610e-02
3.198906059148151e-09	3.673282e+00	2.882724e+00	-5.589233e-02
3.204533431396463e-09	3.637535e+00	2.887120e+00	-7.227766e-02
3.209635394766305e-09	3.618373e+00	2.881466e+00	-8.682860e-02
3.215174486337390e-09	3.606443e+00	2.866477e+00	-1.022375e-01
3.221655669283406e-09	3.597673e+00	2.843506e+00	-1.196485e-01
3.231781161951798e-09	3.567437e+00	2.851485e+00	-1.452263e-01
3.241720993810993e-09	3.536811e+00	2.873273e+00	-1.681787e-01
3.253740727042089e-09	3.530374e+00	2.885212e+00	-1.928444e-01
3.266412804672064e-09	3.526434e+00	2.882724e+00	-2.149291e-01
3.280522084183625e-09	3.512587e+00	2.834428e+00	-2.342620e-01
3.291789068281123e-09	3.491004e+00	2.874571e+00	-2.453675e-01
3.303225967013482e-09	3.471563e+00	2.940773e+00	-2.527200e-01
3.316309429092130e-09	3.445134e+00	2.976133e+00	-2.567866e-01
3.332454425322304e-09	3.409786e+00	3.022042e+00	-2.562385e-01
3.347332977188956e-09	3.400123e+00	3.041681e+00	-2.510307e-01
3.364912868057782e-09	3.399519e+00	3.079535e+00	-2.402056e-01
3.380008783638857e-09	3.415931e+00	3.102051e+00	-2.277934e-01
3.394632304729052e-09	3.433106e+00	3.168359e+00	-2.140387e-01
3.403601908184626e-09	3.439015e+00	3.224764e+00	-2.052431e-01
3.412939038905623e-09	3.444810e+00	3.272813e+00	-1.963063e-01
3.417189541711533e-09	3.446457e+00	3.295414e+00	-1.924120e-01
3.420687885242578e-09	3.448153e+00	3.306306e+00	-1.893310e-01
3.423527945119513e-09	3.449554e+00	3.311451e+00	-1.869254e-01
3.426162481897566e-09	3.450781e+00	3.314142e+00	-1.847777e-01
3.431431555453671e-09	3.452833e+00	3.316231e+00	-1.807428e-01
3.435279626597533e-09	3.431583e+00	3.336227e+00	-1.780297e-01
3.439029183011676e-09	3.399030e+00	3.368269e+00	-1.755955e-01
3.442921861098606e-09	3.382045e+00	3.389624e+00	-1.733186e-01
3.447309081929467e-09	3.374766e+00	3.403372e+00	-1.710953e-01
3.452476305997940e-09	3.375053e+00	3.410147e+00	-1.689823e-01
3.460037728737421e-09	3.363725e+00	3.435934e+00	-1.669469e-01
3.469580593022284e-09	3.348557e+00	3.472094e+00	-1.663174e-01
3.479896506913586e-09	3.380034e+00	3.502898e+00	-1.683027e-01
3.494152530577789e-09	3.428390e+00	3.551885e+00	-1.760266e-01
3.507064685801161e-09	3.401250e+00	3.573967e+00	-1.882823e-01
3.516332408756154e-09	3.352493e+00	3.587919e+00	-2.002248e-01
3.526503572583505e-09	3.300833e+00	3.598720e+00	-2.162986e-01
3.543294773804624e-09	3.203402e+00	3.607770e+00	-2.491844e-01
3.558255429285511e-09	3.136156e+00	3.618941e+00	-2.845011e-01
3.568511581775924e-09	3.130256e+00	3.625487e+00	-3.115374e-01
3.579055318175391e-09	3.140909e+00	3.629594e+00	-3.413051e-01
3.590424868552280e-09	3.110837e+00	3.630808e+00	-3.751752e-01
3.599571865081813e-09	3.036066e+00	3.629703e+00	-4.034041e-01
3.609793426026538e-09	2.953577e+00	3.626939e+00	-4.355429e-01
3.619749984604184e-09	2.931016e+00	3.623324e+00	-4.670361e-01
3.629799429111793e-09	2.918501e+00	3.619344e+00	-4.985614e-01
3.639002263244078e-09	2.869617e+00	3.615814e+00	-5.268245e-01
3.648800525163747e-09	2.806952e+00	3.612547e+00	-5.558773e-01
3.659440533725106e-09	2.764009e+00	3.609950e+00	-5.857611e-01
3.670407721734841e-09	2.761330e+00	3.612472e+00	-6.142722e-01
3.682359345346628e-09	2.753001e+00	3.613276e+00	-6.421558e-01
3.691470359412087e-09	2.715521e+00	3.610912e+00	-6.608742e-01
3.702013983851683e-09	2.653406e+00	3.613605e+00	-6.794590e-01
3.712945829343748e-09	2.597588e+00	3.621465e+00	-6.949709e-01
3.721056186405662e-09	2.594625e+00	3.637020e+00	-7.038902e-01
3.731400068994460e-09	2.607360e+00	3.652133e+00	-7.119864e-01
3.741976874758660e-09	2.601886e+00	3.657125e+00	-7.164311e-01
3.753525699699739e-09	2.596750e+00	3.672361e+00	-7.168370e-01
3.765739565469616e-09	2.591392e+00	3.689726e+00	-7.122842e-01
3.782951899542487e-09	2.593868e+00	3.735546e+00	-6.976905e-01
3.799186133973230e-09	2.622821e+00	3.789168e+00	-6.761004e-01
3.815991815390464e-09	2.638925e+00	3.833137e+00	-6.472659e-01
3.825727096962759e-09	2.633476e+00	3.868546e+00	-6.281603e-01
3.836185183055978e-09	2.649639e+00	3.893508e+00	-6.062487e-01
3.842496337076200e-09	2.666908e+00	3.899954e+00	-5.925016e-01
3.851002196423187e-09	2.682047e+00	3.923028e+00	-5.735701e-01
3.861140634974499e-09	2.709567e+00	3.962703e+00	-5.507136e-01
3.866771876119525e-09	2.735964e+00	3.980221e+00	-5.380216e-01
3.874220227070329e-09	2.764426e+00	3.994732e+00	-5.214270e-01
3.877812803655584e-09	2.776511e+00	4.005199e+00	-5.135374e-01
3.883184814137753e-09	2.795266e+00	4.024798e+00	-5.019386e-01
3.889670955323773e-09	2.806206e+00	4.042682e+00	-4.883277e-01
3.895603086545138e-09	2.813088e+00	4.059910e+00	-4.763364e-01
3.903616152343649e-09	2.820647e+00	4.081485e+00	-4.609802e-01
3.915315381863448e-09	2.822485e+00	4.097611e+00	-4.406109e-01
3.924808276661451e-09	2.845326e+00	4.100530e+00	-4.260784e-01
3.932530911609976e-09	2.885556e+00	4.096971e+00	-4.156754e-01
3.940900111037527e-09	2.911279e+00	4.095750e+00	-4.058936e-01
3.949595421036275e-09	2.920680e+00	4.099371e+00	-3.974199e-01
3.959392375226244e-09	2.931863e+00	4.099565e+00	-3.899919e-01
3.971454874656614e-09	2.929468e+00	4.099211e+00	-3.839725e-01
3.987002519035703e-09	2.919066e+00	4.108135e+00	-3.812538e-01
4.001331575535081e-09	2.917957e+00	4.109592e+00	-3.836145e-01
4.015612777357145e-09	2.923362e+00	4.097265e+00	-3.902791e-01
4.031114787307660e-09	2.954758e+00	4.067484e+00	-4.017100e-01
4.048380686240788e-09	2.983415e+00	4.017071e+00	-4.182476e-01
4.068306715757440e-09	2.980768e+00	3.941631e+00	-4.397569e-01
4.087644004326448e-09	2.970205e+00	3.891566e+00	-4.601022e-01
4.105095415342670e-09	2.974935e+00	3.862648e+00	-4.756116e-01
4.123486775448004e-09	3.003368e+00	3.850306e+00	-4.871825e-01
4.138966900066538e-09	3.022183e+00	3.825327e+00	-4.921114e-01
4.151665030575013e-09	3.035293e+00	3.758285e+00	-4.921013e-01
4.166045023677646e-09	3.045383e+00	3.705237e+00	-4.866914e-01
4.178835373866252e-09	3.080077e+00	3.677999e+00	-4.764949e-01
4.193489767100075e-09	3.148864e+00	3.661519e+00	-4.583256e-01
4.206990707896803e-09	3.201819e+00	3.694343e+00	-4.356334e-01
4.223320354645742e-09	3.267517e+00	3.733817e+00	-4.015003e-01
4.234070618832837e-09	3.313046e+00	3.712280e+00	-3.756075e-01
4.244254881770263e-09	3.358459e+00	3.668302e+00	-3.488739e-01
4.255105601381193e-09	3.409625e+00	3.665738e+00	-3.181400e-01
4.265732299483941e-09	3.462339e+00	3.695992e+00	-2.861209e-01
4.276016163670802e-09	3.515209e+00	3.704825e+00	-2.538776e-01
4.287381747631548e-09	3.575178e+00	3.696771e+00	-2.173856e-01
4.298409586519664e-09	3.635170e+00	3.700930e+00	-1.815258e-01
4.310691932916675e-09	3.701709e+00	3.731490e+00	-1.416858e-01
4.323429977890572e-09	3.765783e+00	3.749070e+00	-1.013795e-01
4.333024796855419e-09	3.812589e+00	3.733485e+00	-7.222417e-02
4.343384936751318e-09	3.865566e+00	3.704976e+00	-4.224578e-02
4.354294349886174e-09	3.923360e+00	3.697752e+00	-1.257399e-02
4.363787940027287e-09	3.968807e+00	3.719354e+00	1.142594e-02
4.373692181503580e-09	4.006700e+00	3.737064e+00	3.428048e-02
4.382332245543435e-09	4.037374e+00	3.736228e+00	5.212192e-02
4.392803494494819e-09	4.075136e+00	3.723080e+00	7.091419e-02
4.403047732634982e-09	4.105975e+00	3.708541e+00	8.622384e-02
4.417881251752561e-09	4.160260e+00	3.675238e+00	1.029713e-01
4.431889026794631e-09	4.214382e+00	3.638380e+00	1.130501e-01
4.445783692146498e-09	4.244689e+00	3.612814e+00	1.178953e-01
4.456620211800344e-09	4.261682e+00	3.583327e+00	1.183604e-01
4.467284283152938e-09	4.271952e+00	3.550846e+00	1.162347e-01
4.478502614692133e-09	4.278347e+00	3.525247e+00	1.115489e-01
4.488844331601805e-09	4.293229e+00	3.498320e+00	1.052959e-01
4.495681689989283e-09	4.304923e+00	3.480200e+00	1.002879e-01
4.503186093576807e-09	4.311593e+00	3.461863e+00	9.414154e-02
4.509828768214267e-09	4.316960e+00	3.446594e+00	8.822580e-02
4.517578792124260e-09	4.325394e+00	3.425793e+00	8.088735e-02
4.523456827896327e-09	4.330341e+00	3.402120e+00	7.510612e-02
4.528579695042398e-09	4.334772e+00	3.377404e+00	7.000119e-02
4.534553467552288e-09	4.338946e+00	3.349445e+00	6.406081e-02
4.540551472048136e-09	4.339631e+00	3.323428e+00	5.819277e-02
