time	V(far)	V(near)	V(probe)
0.000000000000000e+00	4.535242e-06	4.535242e-06	1.662151e-04
1.000000000000000e-09	4.535242e-06	4.535242e-06	1.662151e-04
1.248610568318584e-09	4.535242e-06	4.535242e-06	1.662151e-04
1.250856815379706e-09	6.541524e-02	6.596047e-02	6.557693e-02
1.252046911247422e-09	1.326506e-01	1.341459e-01	1.328123e-01
1.253029394862210e-09	1.850991e-01	1.880155e-01	1.852607e-01
1.254060345444167e-09	2.373130e-01	2.424917e-01	2.374747e-01
1.256122246608080e-09	3.336633e-01	3.461914e-01	3.338250e-01
1.259195241953503e-09	4.590689e-01	4.904350e-01	4.592306e-01
1.263009375879807e-09	5.882601e-01	6.568339e-01	5.884218e-01
1.267719501355772e-09	7.139734e-01	8.480667e-01	7.141351e-01
1.273341388800616e-09	8.245573e-01	1.058365e+00	8.247190e-01
1.280262503666774e-09	9.153067e-01	1.288066e+00	9.154684e-01
1.288050536053534e-09	9.729640e-01	1.500686e+00	9.731257e-01
1.297172664412612e-09	9.982623e-01	1.680157e+00	9.984239e-01
1.308553291173910e-09	9.868387e-01	1.802507e+00	9.870004e-01
1.320682880032929e-09	9.401619e-01	1.834928e+00	9.403235e-01
1.335676266984090e-09	8.523424e-01	1.796961e+00	8.525040e-01
1.350224764159715e-09	7.474474e-01	1.733610e+00	7.476091e-01
1.368459277050884e-09	6.015295e-01	1.669924e+00	6.016912e-01
1.390960029551293e-09	4.134971e-01	1.636414e+00	4.136588e-01
1.417917884256993e-09	1.946988e-01	1.654678e+00	1.948605e-01
1.443370963212742e-09	9.011972e-03	1.721890e+00	9.173651e-03
1.468888939729889e-09	-1.456963e-01	1.837016e+00	-1.455346e-01
1.472746327030065e-09	-1.659293e-01	1.858605e+00	-1.657676e-01
1.480461101630416e-09	-2.036642e-01	1.904870e+00	-2.035025e-01
1.484570450799296e-09	-2.222602e-01	1.931133e+00	-2.220985e-01
1.491781301662240e-09	-2.523277e-01	1.979735e+00	-2.521660e-01
1.500000000000000e-09	-2.825994e-01	2.038755e+00	-2.824377e-01
1.505753088836432e-09	-3.012354e-01	2.082200e+00	-3.010737e-01
1.512328047506640e-09	-3.200296e-01	2.133718e+00	-3.198679e-01
1.525477964847056e-09	-3.497423e-01	2.241877e+00	-3.495806e-01
1.551777799527889e-09	-3.802670e-01	2.471789e+00	-3.801053e-01
1.584580109982194e-09	-3.737732e-01	2.765361e+00	-3.736115e-01
1.617943907993073e-09	-3.333164e-01	3.044564e+00	-3.331547e-01
1.650589411858518e-09	-2.801046e-01	3.272668e+00	-2.799429e-01
1.687243341751277e-09	-2.256814e-01	3.451656e+00	-2.255197e-01
1.720684438513170e-09	-1.934000e-01	3.533310e+00	-1.932383e-01
1.753338602710409e-09	-1.821981e-01	3.538604e+00	-1.820364e-01
1.777857801719839e-09	-1.852716e-01	3.499926e+00	-1.851099e-01
1.802324311651679e-09	-1.939403e-01	3.433132e+00	-1.937787e-01
1.826601031848070e-09	-2.030030e-01	3.347874e+00	-2.028413e-01
1.856359045597932e-09	-2.065443e-01	3.231771e+00	-2.063826e-01
1.864767948058035e-09	-2.050775e-01	3.198339e+00	-2.049158e-01
1.867762205535398e-09	-2.014826e-01	3.186541e+00	-2.040366e-01
1.869331830917780e-09	-1.983889e-01	3.180389e+00	-2.034956e-01
1.870827566358120e-09	-1.958944e-01	3.174550e+00	-2.029276e-01
1.873328514236683e-09	-1.924906e-01	3.164845e+00	-2.018605e-01
1.875662832332438e-09	-1.921175e-01	3.155855e+00	-2.007295e-01
1.877989764471449e-09	-1.933481e-01	3.146968e+00	-1.994694e-01
1.880376652831120e-09	-1.925245e-01	3.137936e+00	-1.980362e-01
1.883034783783448e-09	-1.879837e-01	3.127984e+00	-1.962691e-01
1.885652456885607e-09	-1.787098e-01	3.118302e+00	-1.943495e-01
1.888250585361318e-09	-1.639968e-01	3.108817e+00	-1.922650e-01
1.890652542501237e-09	-1.499994e-01	3.100164e+00	-1.901766e-01
1.892769762648581e-09	-1.323054e-01	3.092635e+00	-1.882057e-01
1.895024431943045e-09	-1.094186e-01	3.084723e+00	-1.859712e-01
1.899209399447498e-09	-5.549360e-02	3.070341e+00	-1.814484e-01
1.902626096987809e-09	-9.487013e-03	3.058907e+00	-1.773902e-01
1.906711978435808e-09	5.345873e-02	3.045616e+00	-1.721020e-01
1.911286725634270e-09	1.208282e-01	3.031255e+00	-1.656131e-01
1.916476097525029e-09	1.956646e-01	3.015664e+00	-1.575268e-01
1.924460031546836e-09	3.220686e-01	2.993205e+00	-1.435835e-01
1.928460847968600e-09	3.470419e-01	2.982669e+00	-1.359169e-01
1.933698389935660e-09	3.661621e-01	2.969629e+00	-1.252116e-01
1.939805753874995e-09	3.717816e-01	2.955519e+00	-1.117889e-01
1.952020481753665e-09	3.461276e-01	2.930891e+00	-8.210536e-02
1.960291636146840e-09	3.381585e-01	2.916937e+00	-5.999331e-02
1.968936313820078e-09	3.192904e-01	2.904665e+00	-3.535394e-02
1.977572751545627e-09	3.083690e-01	2.894690e+00	-9.392030e-03
1.987547251246360e-09	3.083034e-01	2.885862e+00	2.194164e-02
1.995179665724472e-09	3.427754e-01	2.880936e+00	4.666074e-02
2.003179703280589e-09	3.950154e-01	2.877326e+00	7.301809e-02
2.008939572015854e-09	4.151876e-01	2.875631e+00	9.214988e-02
2.015379959646116e-09	4.348273e-01	2.874542e+00	1.135563e-01
2.019485883796740e-09	4.887283e-01	2.874254e+00	1.271528e-01
2.023650345991699e-09	5.658134e-01	2.874251e+00	1.408650e-01
2.026535162059178e-09	5.996929e-01	2.874408e+00	1.502963e-01
2.030134889762349e-09	6.282621e-01	2.874767e+00	1.619643e-01
2.036791755064328e-09	6.590629e-01	2.875849e+00	1.831632e-01
2.040919331014295e-09	7.207626e-01	2.876758e+00	1.960136e-01
2.045059233150076e-09	8.109014e-01	2.877815e+00	2.086347e-01
2.048049060487489e-09	8.514385e-01	2.878655e+00	2.175622e-01
2.051855758643802e-09	8.812692e-01	2.879796e+00	2.286754e-01
2.057890871856718e-09	9.004288e-01	2.881717e+00	2.456478e-01
2.064617194614235e-09	9.036072e-01	2.883932e+00	2.635233e-01
2.069242479311536e-09	9.655252e-01	2.885446e+00	2.751131e-01
2.074044874657938e-09	1.060265e+00	2.886961e+00	2.864868e-01
2.077596804464438e-09	1.093741e+00	2.888023e+00	2.944401e-01
2.081886654688022e-09	1.111458e+00	2.889210e+00	3.034951e-01
2.089037887423975e-09	1.114610e+00	2.890888e+00	3.171702e-01
2.093839121542018e-09	1.185949e+00	2.891761e+00	3.253106e-01
2.098618849873594e-09	1.297271e+00	2.892386e+00	3.325399e-01
2.102507077612034e-09	1.364420e+00	2.892694e+00	3.377566e-01
2.107714568626625e-09	1.424531e+00	2.892796e+00	3.437781e-01
2.118129550655809e-09	1.468864e+00	2.891797e+00	3.523889e-01
2.126337403917513e-09	1.503889e+00	2.889784e+00	3.558659e-01
2.135587259623284e-09	1.545463e+00	2.886098e+00	3.561995e-01
2.154086971034827e-09	1.631952e+00	2.873974e+00	3.454537e-01
2.191086393857912e-09	1.797303e+00	2.832012e+00	2.820233e-01
2.229405185542632e-09	1.944070e+00	2.770659e+00	1.698227e-01
2.254323446390686e-09	2.027541e+00	2.727338e+00	8.159995e-02
2.275442220375156e-09	2.128070e+00	2.693512e+00	4.976026e-03
2.297849175583430e-09	2.183204e+00	2.664817e+00	-7.175608e-02
2.319004477961744e-09	2.222674e+00	2.647811e+00	-1.348418e-01
2.349106576019683e-09	2.371676e+00	2.645516e+00	-2.006294e-01
2.382193110169669e-09	2.538632e+00	2.675819e+00	-2.334678e-01
2.419180299590324e-09	2.744442e+00	2.748148e+00	-2.191623e-01
2.458489399066608e-09	2.976547e+00	2.856789e+00	-1.547311e-01
2.484815961038602e-09	3.129673e+00	2.937965e+00	-9.267778e-02
2.503674849378909e-09	3.232101e+00	2.997170e+00	-4.456330e-02
2.521913122994978e-09	3.321402e+00	3.048231e+00	1.059185e-03
2.540531452698007e-09	3.399886e+00	3.113526e+00	4.357011e-02
2.559385702312192e-09	3.463753e+00	3.153283e+00	7.955702e-02
2.585661019041673e-09	3.523469e+00	3.029598e+00	1.138808e-01
2.609236927978450e-09	3.548023e+00	2.927956e+00	1.277877e-01
2.634482253478986e-09	3.546427e+00	3.029234e+00	1.258810e-01
2.659792306979486e-09	3.518900e+00	3.157321e+00	1.078742e-01
2.686454427791602e-09	3.465491e+00	3.116862e+00	7.296678e-02
2.713179102288384e-09	3.393011e+00	2.965083e+00	2.557194e-02
2.731771294771953e-09	3.336211e+00	2.899942e+00	-1.101967e-02
2.751524835005024e-09	3.275450e+00	2.831409e+00	-4.877349e-02
2.769820979368508e-09	3.222557e+00	2.745618e+00	-7.957403e-02
2.795467183564298e-09	3.160204e+00	2.708635e+00	-1.107729e-01
2.822163336914123e-09	3.115482e+00	2.738436e+00	-1.242851e-01
2.858790836880950e-09	3.092292e+00	2.785810e+00	-1.095477e-01
2.893078019585850e-09	3.106907e+00	2.844291e+00	-6.620050e-02
2.914284424716613e-09	3.129416e+00	2.905668e+00	-2.953133e-02
2.932123687665725e-09	3.153246e+00	2.962134e+00	3.852391e-03
2.950898702448926e-09	3.180490e+00	2.999597e+00	3.858799e-02
2.963331993274941e-09	3.186317e+00	2.989381e+00	6.014654e-02
2.977540039781311e-09	3.208024e+00	3.069842e+00	8.220502e-02
2.995987650906806e-09	3.229307e+00	3.156273e+00	1.050865e-01
3.014173301847803e-09	3.249319e+00	3.222352e+00	1.194300e-01
3.039258363125771e-09	3.287843e+00	3.402944e+00	1.224485e-01
3.058756356975567e-09	3.262408e+00	3.335364e+00	1.098311e-01
3.071921408412291e-09	3.233315e+00	3.217748e+00	9.377834e-02
3.087290840825245e-09	3.216251e+00	3.238821e+00	6.829996e-02
3.100056164617406e-09	3.202640e+00	3.303023e+00	4.248731e-02
3.113385844585901e-09	3.181581e+00	3.348061e+00	1.187357e-02
3.138612003559402e-09	3.139339e+00	3.412912e+00	-5.346428e-02
3.152934329008146e-09	3.107568e+00	3.368938e+00	-9.355357e-02
3.165784188836354e-09	3.084227e+00	3.335349e+00	-1.300361e-01
3.180078034853749e-09	3.056983e+00	3.281484e+00	-1.697759e-01
3.189285230923710e-09	3.034611e+00	3.281881e+00	-1.942509e-01
3.197797420447939e-09	3.015680e+00	3.305318e+00	-2.156414e-01
3.207657885778123e-09	2.999495e+00	3.289087e+00	-2.385381e-01
3.218501994498845e-09	2.925027e+00	3.307509e+00	-2.609529e-01
3.227712821186490e-09	2.862315e+00	3.335920e+00	-2.774149e-01
3.237089605973088e-09	2.843213e+00	3.344081e+00	-2.915019e-01
3.242502493767955e-09	2.837458e+00	3.347265e+00	-2.983438e-01
3.246629344701959e-09	2.842883e+00	3.340780e+00	-3.029010e-01
3.249201907197889e-09	2.848538e+00	3.334409e+00	-3.054475e-01
3.252771100635563e-09	2.857818e+00	3.324177e+00	-3.085988e-01
3.256799442199165e-09	2.869236e+00	3.312139e+00	-3.116142e-01
3.258681443810674e-09	2.890974e+00	3.314631e+00	-3.128232e-01
3.259609436143678e-09	2.907054e+00	3.318895e+00	-3.133723e-01
3.261237727154248e-09	2.928476e+00	3.324082e+00	-3.142598e-01
3.262997832044350e-09	2.947289e+00	3.328328e+00	-3.151098e-01
3.264602044227999e-09	2.961128e+00	3.331112e+00	-3.157853e-01
3.266917042470026e-09	2.976624e+00	3.333602e+00	-3.165925e-01
3.269035284185651e-09	2.987026e+00	3.334565e+00	-3.171570e-01
3.271403507267039e-09	2.995382e+00	3.334506e+00	-3.175905e-01
3.273910135072264e-09	3.001358e+00	3.333500e+00	-3.178215e-01
3.275871685343439e-09	3.004468e+00	3.332256e+00	-3.178386e-01
3.278077672072014e-09	3.006764e+00	3.330598e+00	-3.176858e-01
3.280537039456677e-09	3.008228e+00	3.328645e+00	-3.173006e-01
3.284633750927191e-09	3.009095e+00	3.325725e+00	-3.161560e-01
3.287451153102179e-09	3.033305e+00	3.332278e+00	-3.150042e-01
3.290027621830182e-09	3.070339e+00	3.344489e+00	-3.136920e-01
3.292689566182586e-09	3.095518e+00	3.354383e+00	-3.120777e-01
3.296241661118907e-09	3.114595e+00	3.364055e+00	-3.095182e-01
3.300232795848273e-09	3.122842e+00	3.371205e+00	-3.060966e-01
3.305783404971434e-09	3.121751e+00	3.376981e+00	-3.003981e-01
3.312613014256957e-09	3.104317e+00	3.388827e+00	-2.919312e-01
3.321318426517351e-09	3.080785e+00	3.406852e+00	-2.789224e-01
3.333846959897976e-09	3.076448e+00	3.421687e+00	-2.561962e-01
3.349870506017449e-09	3.032957e+00	3.443896e+00	-2.211528e-01
3.368357853732769e-09	3.025653e+00	3.476102e+00	-1.741975e-01
3.374396298445472e-09	3.046025e+00	3.480286e+00	-1.576689e-01
3.379966266019298e-09	3.070729e+00	3.487134e+00	-1.420655e-01
3.384782107772775e-09	3.105225e+00	3.501399e+00	-1.283584e-01
3.388704081062121e-09	3.131086e+00	3.514005e+00	-1.170840e-01
3.392998278668147e-09	3.157266e+00	3.528085e+00	-1.046622e-01
3.397751436246340e-09	3.171486e+00	3.537351e+00	-9.086340e-02
3.402978004347056e-09	3.179016e+00	3.543041e+00	-7.568925e-02
3.408772186932378e-09	3.198771e+00	3.553976e+00	-5.894566e-02
3.416805139176654e-09	3.233431e+00	3.573225e+00	-3.603988e-02
3.425575826991725e-09	3.272818e+00	3.576527e+00	-1.168057e-02
3.437644042739438e-09	3.320707e+00	3.576133e+00	2.020110e-02
3.449373651088883e-09	3.372772e+00	3.579606e+00	4.883786e-02
3.458186841673709e-09	3.407273e+00	3.581383e+00	6.851517e-02
3.465198412447154e-09	3.421195e+00	3.595206e+00	8.288854e-02
3.472309775475470e-09	3.430268e+00	3.611887e+00	9.619860e-02
3.480745640548675e-09	3.437848e+00	3.628404e+00	1.102036e-01
3.485167937989706e-09	3.443640e+00	3.614897e+00	1.167326e-01
3.489349533624854e-09	3.450010e+00	3.588559e+00	1.223710e-01
3.494547903852110e-09	3.454766e+00	3.570209e+00	1.286414e-01
3.498379773073336e-09	3.456763e+00	3.564641e+00	1.327351e-01
3.503278095932150e-09	3.458160e+00	3.563963e+00	1.373121e-01
3.508797121293835e-09	3.458655e+00	3.568198e+00	1.415860e-01
3.515018500431664e-09	3.458243e+00	3.574914e+00	1.452813e-01
3.519006163973976e-09	3.454775e+00	3.561209e+00	1.470244e-01
3.521713547660048e-09	3.451009e+00	3.542278e+00	1.479312e-01
3.525280022925429e-09	3.447472e+00	3.524565e+00	1.487875e-01
3.527619012935613e-09	3.445778e+00	3.516764e+00	1.491424e-01
3.529875208625409e-09	3.444443e+00	3.511548e+00	1.493318e-01
3.531950882825575e-09	3.443390e+00	3.508402e+00	1.493749e-01
3.534016223773204e-09	3.442447e+00	3.506537e+00	1.492947e-01
3.537535935043391e-09	3.440947e+00	3.505437e+00	1.488798e-01
3.541834296233566e-09	3.439919e+00	3.494101e+00	1.479063e-01
3.546774263494945e-09	3.438891e+00	3.474091e+00	1.461736e-01
3.551607641701103e-09	3.436656e+00	3.464312e+00	1.438660e-01
3.559490092287765e-09	3.432340e+00	3.445437e+00	1.388824e-01
3.567660894737331e-09	3.426093e+00	3.426409e+00	1.322336e-01
3.575354441752089e-09	3.406271e+00	3.404385e+00	1.247282e-01
3.583780181208325e-09	3.381448e+00	3.377607e+00	1.152987e-01
3.592564683661240e-09	3.363487e+00	3.360563e+00	1.043273e-01
3.599752280888303e-09	3.360629e+00	3.336275e+00	9.463917e-02
3.607222424217761e-09	3.365623e+00	3.310037e+00	8.405123e-02
3.615535019905283e-09	3.359339e+00	3.294499e+00	7.183504e-02
3.630946057996001e-09	3.365008e+00	3.265904e+00	4.873240e-02
3.644926217829875e-09	3.364089e+00	3.219686e+00	2.806368e-02
3.649815290686871e-09	3.352246e+00	3.201380e+00	2.106157e-02
3.654058730041496e-09	3.340601e+00	3.188800e+00	1.513945e-02
3.658361961268504e-09	3.328576e+00	3.178279e+00	9.309744e-03
3.662210169814926e-09	3.343044e+00	3.172171e+00	4.267123e-03
3.665994254525950e-09	3.371312e+00	3.168362e+00	-5.166839e-04
3.669828989731673e-09	3.382041e+00	3.163804e+00	-5.171640e-03
3.674515534495062e-09	3.380386e+00	3.157009e+00	-1.057481e-02
3.679927298227532e-09	3.367637e+00	3.147705e+00	-1.639249e-02
3.686393499501638e-09	3.319742e+00	3.127178e+00	-2.270277e-02
3.693399970566844e-09	3.260231e+00	3.100837e+00	-2.869019e-02
3.701790107766199e-09	3.194741e+00	3.074466e+00	-3.459811e-02
3.707640079339846e-09	3.171731e+00	3.059352e+00	-3.785265e-02
3.712339210149195e-09	3.173917e+00	3.051265e+00	-3.992549e-02
3.720197390207844e-09	3.172035e+00	3.043943e+00	-4.227062e-02
3.725973977660901e-09	3.208910e+00	3.047993e+00	-4.308220e-02
3.730399798209942e-09	3.249417e+00	3.054579e+00	-4.317505e-02
3.735472523360350e-09	3.274496e+00	3.059633e+00	-4.271824e-02
3.741017768302992e-09	3.301141e+00	3.062365e+00	-4.153851e-02
3.747517187094521e-09	3.327527e+00	3.062890e+00	-3.927232e-02
3.753739934881210e-09	3.332673e+00	3.061971e+00	-3.623539e-02
3.762271341307049e-09	3.328975e+00	3.060432e+00	-3.075942e-02
3.770122000617746e-09	3.356929e+00	3.068483e+00	-2.445410e-02
3.783806303544759e-09	3.392581e+00	3.090014e+00	-1.091068e-02
3.794222784702844e-09	3.369937e+00	3.099724e+00	1.285888e-03
3.805943522166823e-09	3.356882e+00	3.113492e+00	1.649440e-02
3.818558044783806e-09	3.372423e+00	3.130440e+00	3.406927e-02
3.830821457106969e-09	3.418103e+00	3.146933e+00	5.175696e-02
3.842332455457838e-09	3.457711e+00	3.175553e+00	6.834226e-02
3.851200487624286e-09	3.488411e+00	3.183891e+00	8.077998e-02
3.856708705765398e-09	3.511719e+00	3.174445e+00	8.824258e-02
3.862695627812117e-09	3.529242e+00	3.178221e+00	9.604576e-02
3.866248408352111e-09	3.534876e+00	3.193517e+00	1.005030e-01
3.871052428214905e-09	3.540623e+00	3.213420e+00	1.062918e-01
3.876152144243907e-09	3.542145e+00	3.231284e+00	1.121055e-01
3.886351576301909e-09	3.536651e+00	3.275047e+00	1.225242e-01
3.891726678097456e-09	3.538492e+00	3.308946e+00	1.272965e-01
3.895786570621853e-09	3.543659e+00	3.341032e+00	1.305280e-01
3.900581933757431e-09	3.548513e+00	3.370338e+00	1.338943e-01
3.904405720844774e-09	3.550612e+00	3.383701e+00	1.362066e-01
3.909619298466373e-09	3.551425e+00	3.387677e+00	1.387905e-01
3.914672313025094e-09	3.553789e+00	3.370356e+00	1.406386e-01
3.920549614429236e-09	3.564118e+00	3.355478e+00	1.419428e-01
3.928197282319429e-09	3.579802e+00	3.358536e+00	1.422452e-01
3.936117037139160e-09	3.587183e+00	3.345664e+00	1.408776e-01
3.943263220376653e-09	3.588996e+00	3.317763e+00	1.381811e-01
3.953386102771615e-09	3.588898e+00	3.270353e+00	1.320662e-01
3.963765751215992e-09	3.581738e+00	3.244635e+00	1.231743e-01
3.968506102638322e-09	3.574646e+00	3.247277e+00	1.182897e-01
3.972047910411164e-09	3.569050e+00	3.253884e+00	1.143276e-01
3.975553482290196e-09	3.565287e+00	3.262935e+00	1.101548e-01
3.979554767350325e-09	3.562564e+00	3.275310e+00	1.050985e-01
3.985898090665576e-09	3.559595e+00	3.295101e+00	9.647305e-02
3.994079755871888e-09	3.551488e+00	3.299302e+00	8.431159e-02
4.001596705000685e-09	3.538654e+00	3.303266e+00	7.218844e-02
4.009631336856399e-09	3.525730e+00	3.327276e+00	5.833136e-02
4.018334227075306e-09	3.518231e+00	3.357359e+00	4.239929e-02
4.027671564233854e-09	3.510471e+00	3.383687e+00	2.438965e-02
4.033481394280472e-09	3.501748e+00	3.385699e+00	1.277126e-02
4.038919950067472e-09	3.493137e+00	3.378427e+00	1.659581e-03
4.046430091403349e-09	3.481424e+00	3.365122e+00	-1.397073e-02
4.054299612272139e-09	3.465282e+00	3.350875e+00	-3.057755e-02
4.068221260415866e-09	3.426292e+00	3.324442e+00	-5.994868e-02
4.082302796613562e-09	3.391398e+00	3.300092e+00	-8.882455e-02
4.088919628383059e-09	3.382152e+00	3.289909e+00	-1.018321e-01
4.092877975988139e-09	3.379615e+00	3.282587e+00	-1.093693e-01
4.096771591006469e-09	3.379182e+00	3.273798e+00	-1.165746e-01
4.100561786536569e-09	3.379610e+00	3.264493e+00	-1.233691e-01
4.108142177596769e-09	3.378877e+00	3.245557e+00	-1.362196e-01
4.113503966938760e-09	3.369282e+00	3.233422e+00	-1.446586e-01
4.118524868296699e-09	3.348700e+00	3.225569e+00	-1.520165e-01
4.121627466895967e-09	3.334407e+00	3.222440e+00	-1.562829e-01
4.126026055009174e-09	3.318810e+00	3.219029e+00	-1.619414e-01
4.130764812237202e-09	3.309316e+00	3.216308e+00	-1.675029e-01
4.138400031893689e-09	3.307208e+00	3.213542e+00	-1.752311e-01
4.146667273167283e-09	3.306112e+00	3.213143e+00	-1.818006e-01
4.162777630894027e-09	3.288664e+00	3.216046e+00	-1.889294e-01
4.177294620730852e-09	3.278045e+00	3.226108e+00	-1.887747e-01
4.186680029347755e-09	3.280976e+00	3.237172e+00	-1.853441e-01
4.198611896452659e-09	3.290940e+00	3.253970e+00	-1.773351e-01
4.210619541460783e-09	3.298753e+00	3.261997e+00	-1.653813e-01
4.222138645896571e-09	3.310689e+00	3.264927e+00	-1.505484e-01
4.235037187613122e-09	3.324872e+00	3.289470e+00	-1.304913e-01
4.246088514233848e-09	3.339001e+00	3.318899e+00	-1.108310e-01
4.257885708470295e-09	3.362269e+00	3.337875e+00	-8.787464e-02
4.266756704923106e-09	3.365593e+00	3.347532e+00	-6.960654e-02
4.279143133656991e-09	3.371775e+00	3.363251e+00	-4.325064e-02
4.297443759857508e-09	3.409550e+00	3.389229e+00	-3.940282e-03
4.308658626586325e-09	3.426659e+00	3.401961e+00	1.964072e-02
4.314642160353611e-09	3.430500e+00	3.401883e+00	3.183591e-02
4.319939036556927e-09	3.429021e+00	3.386343e+00	4.232350e-02
4.325996331657993e-09	3.429475e+00	3.366238e+00	5.390212e-02
4.332193596647971e-09	3.428898e+00	3.347661e+00	6.523680e-02
4.338688070546232e-09	3.425998e+00	3.342534e+00	7.650767e-02
4.344898016344839e-09	3.429368e+00	3.361013e+00	8.665606e-02
4.352228246859068e-09	3.439648e+00	3.384943e+00	9.777418e-02
4.361077364330829e-09	3.458490e+00	3.443906e+00	1.098235e-01
4.370048758030175e-09	3.474262e+00	3.508263e+00	1.203238e-01
4.379979491220517e-09	3.478523e+00	3.534666e+00	1.296656e-01
4.385464678521114e-09	3.475092e+00	3.527715e+00	1.337100e-01
4.390093474006891e-09	3.471182e+00	3.510454e+00	1.364667e-01
4.395029625125677e-09	3.467836e+00	3.483388e+00	1.387291e-01
