time	V(pulse)	V(ref)	V(v+)
0.000000000000000e+00	2.836846e-03	2.833551e-03	3.297166e+00
1.000000000000000e-09	2.836846e-03	2.833551e-03	3.297166e+00
1.199449531894432e-09	2.836846e-03	2.833551e-03	3.297166e+00
1.246474218195726e-09	1.037227e+00	2.376102e-01	3.062390e+00
1.257386626816079e-09	1.844260e+00	6.123320e-01	2.687668e+00
1.266401790682671e-09	2.139438e+00	1.091452e+00	2.208548e+00
1.271870336896753e-09	2.007427e+00	1.255502e+00	2.044498e+00
1.277884820186995e-09	1.967235e+00	1.306615e+00	1.993385e+00
1.284638827352290e-09	1.954299e+00	1.324326e+00	1.975674e+00
1.295727503265145e-09	1.957336e+00	1.323480e+00	1.976520e+00
1.308603897569313e-09	1.971238e+00	1.309753e+00	1.990247e+00
1.324071187604731e-09	1.991989e+00	1.288391e+00	2.011608e+00
1.341405199373031e-09	2.016345e+00	1.263266e+00	2.036734e+00
1.362892115445942e-09	2.047286e+00	1.231386e+00	2.068614e+00
1.388464665478373e-09	2.084794e+00	1.192802e+00	2.107198e+00
1.437741720348168e-09	2.157898e+00	1.117717e+00	2.182283e+00
1.449094579254168e-09	2.174873e+00	1.100311e+00	2.199689e+00
1.471800297066166e-09	2.209017e+00	1.065352e+00	2.234648e+00
1.500000000000000e-09	2.251486e+00	1.021901e+00	2.278099e+00
1.525379732640450e-09	2.289857e+00	9.827154e-01	2.317284e+00
1.550759465280901e-09	2.327685e+00	9.441216e-01	2.355878e+00
1.576139197921351e-09	2.364971e+00	9.061199e-01	2.393880e+00
1.601518930561802e-09	2.401714e+00	8.687102e-01	2.431290e+00
1.626898663202252e-09	2.437915e+00	8.318926e-01	2.468107e+00
1.652278395842702e-09	2.473574e+00	7.956670e-01	2.504333e+00
1.677658128483153e-09	2.508690e+00	7.600335e-01	2.539967e+00
1.858136227259689e-09	2.747262e+00	5.182226e-01	2.781777e+00
1.902583024707189e-09	2.801596e+00	4.632874e-01	2.836713e+00
1.937472406311852e-09	2.841303e+00	4.232211e-01	2.876779e+00
1.951530645881806e-09	2.856757e+00	4.076380e-01	2.892362e+00
1.970205222142208e-09	2.876788e+00	3.874490e-01	2.912551e+00
1.978581027010481e-09	2.885620e+00	3.785502e-01	2.921450e+00
1.988900519842189e-09	2.896322e+00	3.677706e-01	2.932229e+00
2.000612471101950e-09	2.908293e+00	3.557161e-01	2.944284e+00
2.012322834062544e-09	2.920079e+00	3.438502e-01	2.956150e+00
2.022332507135926e-09	2.930000e+00	3.338655e-01	2.966135e+00
2.032115626180209e-09	2.939555e+00	3.242508e-01	2.975749e+00
2.040912301837472e-09	2.948029e+00	3.157260e-01	2.984274e+00
2.049860002307050e-09	2.956530e+00	3.071761e-01	2.992824e+00
2.059495486794174e-09	2.965560e+00	2.980961e-01	3.001904e+00
2.068302878350003e-09	2.973701e+00	2.899117e-01	3.010088e+00
2.076881354827368e-09	2.981525e+00	2.820474e-01	3.017952e+00
2.084285143044391e-09	2.988192e+00	2.753480e-01	3.024652e+00
2.092295623032097e-09	2.995311e+00	2.681946e-01	3.031806e+00
2.101035740919511e-09	3.002977e+00	2.604944e-01	3.039505e+00
2.110106681847385e-09	3.010800e+00	2.526384e-01	3.047362e+00
2.125820067577502e-09	3.024057e+00	2.393291e-01	3.060671e+00
2.145486755184718e-09	3.040172e+00	2.231578e-01	3.076842e+00
2.170549739935319e-09	3.059930e+00	2.033413e-01	3.096659e+00
2.199677357529528e-09	3.081888e+00	1.813325e-01	3.118667e+00
2.226383120109333e-09	3.101056e+00	1.621340e-01	3.137866e+00
2.252251708449437e-09	3.118693e+00	1.444819e-01	3.155518e+00
2.278544980285979e-09	3.135781e+00	1.273906e-01	3.172609e+00
2.297042278055661e-09	3.147275e+00	1.159011e-01	3.184099e+00
2.314883236099693e-09	3.157911e+00	1.052765e-01	3.194723e+00
2.332130825695529e-09	3.167828e+00	9.537455e-02	3.204625e+00
2.346468019462536e-09	3.175783e+00	8.743527e-02	3.212565e+00
2.362653641344962e-09	3.184375e+00	7.886585e-02	3.221134e+00
2.395024885109814e-09	3.200672e+00	6.262433e-02	3.237376e+00
2.425583787415506e-09	3.214920e+00	4.843996e-02	3.251560e+00
2.477823866650427e-09	3.237216e+00	2.627297e-02	3.273727e+00
2.505817318624121e-09	3.248137e+00	1.542891e-02	3.284571e+00
2.531910195151179e-09	3.257454e+00	6.187604e-03	3.293813e+00
2.549433738431392e-09	3.263296e+00	3.961662e-04	3.299604e+00
2.564295822293558e-09	3.267908e+00	-4.177224e-03	3.304177e+00
2.580343909250247e-09	3.272353e+00	-8.603069e-03	3.308603e+00
2.601738797039624e-09	3.276936e+00	-1.321250e-02	3.313213e+00
2.629687256313894e-09	3.280423e+00	-1.676270e-02	3.316763e+00
2.668268786429427e-09	3.282728e+00	-1.906189e-02	3.319062e+00
2.696794570100762e-09	3.284465e+00	-2.069424e-02	3.320694e+00
2.730404318685991e-09	3.287907e+00	-2.396798e-02	3.323968e+00
2.774403425311912e-09	3.294293e+00	-3.013364e-02	3.330133e+00
2.836941734445417e-09	3.305905e+00	-4.138109e-02	3.341381e+00
2.909683846332886e-09	3.324333e+00	-5.923494e-02	3.359235e+00
3.048707479467049e-09	3.372881e+00	-1.062595e-01	3.406260e+00
3.159417203097216e-09	3.420948e+00	-1.528360e-01	3.452836e+00
3.272473485669379e-09	3.470843e+00	-2.011009e-01	3.501101e+00
3.361181825374683e-09	3.505724e+00	-2.345340e-01	3.534534e+00
3.458199514055964e-09	3.544204e+00	-2.711150e-01	3.571115e+00
3.522254777959637e-09	3.571891e+00	-2.974513e-01	3.597451e+00
3.595774953349400e-09	3.603479e+00	-3.274338e-01	3.627434e+00
3.682413478032818e-09	3.638247e+00	-3.602090e-01	3.660209e+00
3.752776130299516e-09	3.664342e+00	-3.846319e-01	3.684632e+00
3.807650576969946e-09	3.681756e+00	-4.007626e-01	3.700763e+00
3.872942833671478e-09	3.697718e+00	-4.152796e-01	3.715280e+00
3.901602997579927e-09	3.702605e+00	-4.195240e-01	3.719524e+00
3.943177730546403e-09	3.708086e+00	-4.240128e-01	3.724013e+00
3.977369290746739e-09	3.712468e+00	-4.275739e-01	3.727574e+00
4.013758326203391e-09	3.716760e+00	-4.310159e-01	3.731016e+00
4.031707688135197e-09	3.718457e+00	-4.323077e-01	3.732308e+00
4.058220939435155e-09	3.720162e+00	-4.334434e-01	3.733443e+00
4.076485157670968e-09	3.720769e+00	-4.336604e-01	3.733660e+00
4.100932722634311e-09	3.721043e+00	-4.333915e-01	3.733392e+00
4.126705107406410e-09	3.720975e+00	-4.327556e-01	3.732756e+00
4.157262466598624e-09	3.720064e+00	-4.312083e-01	3.731208e+00
4.195438346747368e-09	3.717552e+00	-4.279304e-01	3.727930e+00
4.223045391839683e-09	3.714832e+00	-4.246614e-01	3.724661e+00
4.251176506104646e-09	3.711386e+00	-4.206643e-01	3.720664e+00
4.266924955926296e-09	3.709185e+00	-4.181589e-01	3.718159e+00
4.291328458826488e-09	3.705446e+00	-4.139519e-01	3.713952e+00
4.312117528708185e-09	3.701965e+00	-4.100846e-01	3.710084e+00
4.341320754841873e-09	3.696468e+00	-4.040738e-01	3.704074e+00
4.366089843239914e-09	3.691209e+00	-3.983934e-01	3.698393e+00
4.391498896352350e-09	3.685319e+00	-3.920730e-01	3.692073e+00
4.407823516128490e-09	3.681356e+00	-3.878345e-01	3.687835e+00
4.431829389698087e-09	3.675363e+00	-3.814427e-01	3.681443e+00
4.452926930986212e-09	3.669928e+00	-3.756704e-01	3.675670e+00
4.478933980989505e-09	3.662921e+00	-3.682655e-01	3.668266e+00
4.507849019548874e-09	3.654858e+00	-3.597642e-01	3.659764e+00
4.541439664526792e-09	3.645501e+00	-3.498901e-01	3.649890e+00
4.568924387078656e-09	3.638059e+00	-3.420303e-01	3.642030e+00
4.592085976814457e-09	3.631854e+00	-3.354958e-01	3.635496e+00
4.616614904016561e-09	3.625056e+00	-3.283801e-01	3.628380e+00
4.638137758356881e-09	3.618601e+00	-3.216771e-01	3.621677e+00
4.664510326213526e-09	3.609842e+00	-3.126466e-01	3.612647e+00
4.690291790913273e-09	3.600576e+00	-3.031155e-01	3.603116e+00
4.715881775300261e-09	3.591334e+00	-2.935709e-01	3.593571e+00
4.742453056058438e-09	3.582381e+00	-2.842693e-01	3.584269e+00
4.758808072529207e-09	3.577391e+00	-2.790680e-01	3.579068e+00
4.778055354143285e-09	3.571928e+00	-2.733732e-01	3.573373e+00
4.788320230841043e-09	3.569107e+00	-2.704351e-01	3.570435e+00
4.805263241094206e-09	3.564572e+00	-2.657082e-01	3.565708e+00
4.821523678661218e-09	3.560378e+00	-2.613267e-01	3.561327e+00
4.840950097120829e-09	3.555629e+00	-2.563534e-01	3.556354e+00
4.862960914809533e-09	3.550535e+00	-2.510108e-01	3.551011e+00
4.882979739906749e-09	3.546086e+00	-2.463467e-01	3.546347e+00
4.899949161187510e-09	3.542317e+00	-2.424139e-01	3.542414e+00
4.922559564838472e-09	3.537088e+00	-2.369910e-01	3.536991e+00
4.936724102977981e-09	3.533650e+00	-2.334333e-01	3.533433e+00
4.955425145833254e-09	3.529031e+00	-2.286395e-01	3.528640e+00
4.961981869550717e-09	3.527449e+00	-2.269907e-01	3.526991e+00
4.967604632756044e-09	3.526138e+00	-2.256201e-01	3.525620e+00
4.973092160090841e-09	3.524893e+00	-2.243178e-01	3.524318e+00
4.979237759308476e-09	3.523533e+00	-2.228962e-01	3.522896e+00
4.989984207497048e-09	3.521201e+00	-2.204622e-01	3.520462e+00
5.001779632809439e-09	3.518683e+00	-2.178345e-01	3.517835e+00
5.014635125846790e-09	3.515997e+00	-2.150272e-01	3.515027e+00
5.023751191029810e-09	3.514158e+00	-2.130981e-01	3.513098e+00
5.031927627651814e-09	3.512575e+00	-2.114339e-01	3.511434e+00
5.041224522196734e-09	3.510815e+00	-2.095893e-01	3.509589e+00
5.050165930275502e-09	3.509113e+00	-2.078150e-01	3.507815e+00
5.057730218538126e-09	3.507628e+00	-2.062759e-01	3.506276e+00
5.067587464730979e-09	3.505621e+00	-2.041997e-01	3.504200e+00
5.077639902954518e-09	3.503518e+00	-2.020234e-01	3.502023e+00
5.091953402824045e-09	3.500519e+00	-1.989088e-01	3.498909e+00
5.106664681148163e-09	3.497525e+00	-1.957830e-01	3.495783e+00
5.114471292979645e-09	3.496025e+00	-1.942070e-01	3.494207e+00
5.122185779310930e-09	3.494637e+00	-1.927430e-01	3.492743e+00
5.130160399220790e-09	3.493280e+00	-1.913107e-01	3.491311e+00
5.141083613595399e-09	3.491509e+00	-1.894410e-01	3.489441e+00
5.153193818343798e-09	3.489630e+00	-1.874546e-01	3.487455e+00
5.166169913464775e-09	3.487704e+00	-1.854166e-01	3.485417e+00
5.180950335542870e-09	3.485604e+00	-1.831907e-01	3.483191e+00
5.199918214422533e-09	3.482982e+00	-1.804163e-01	3.480416e+00
5.218299995532470e-09	3.480416e+00	-1.777141e-01	3.477714e+00
5.241639422577051e-09	3.477020e+00	-1.741577e-01	3.474158e+00
5.260447403092773e-09	3.474215e+00	-1.712179e-01	3.471218e+00
5.279548875018423e-09	3.471533e+00	-1.683813e-01	3.468381e+00
5.307411960553874e-09	3.468180e+00	-1.647818e-01	3.464782e+00
5.328198769315190e-09	3.466178e+00	-1.625951e-01	3.462595e+00
5.351987653786837e-09	3.464313e+00	-1.605291e-01	3.460529e+00
5.363790399335921e-09	3.463464e+00	-1.595887e-01	3.459589e+00
5.380308568642349e-09	3.462275e+00	-1.582817e-01	3.458282e+00
5.392565178933371e-09	3.461330e+00	-1.572549e-01	3.457255e+00
5.406789628774374e-09	3.460140e+00	-1.559704e-01	3.455971e+00
5.433593474419556e-09	3.457864e+00	-1.535025e-01	3.453502e+00
5.459039665932897e-09	3.455917e+00	-1.513565e-01	3.451356e+00
5.483570321816480e-09	3.454305e+00	-1.495566e-01	3.449557e+00
5.513466121877427e-09	3.452392e+00	-1.474403e-01	3.447440e+00
5.541112282688548e-09	3.450450e+00	-1.453192e-01	3.445319e+00
5.569979809497918e-09	3.448312e+00	-1.429897e-01	3.442990e+00
5.601772144964069e-09	3.446017e+00	-1.404785e-01	3.440479e+00
5.622266556652329e-09	3.444614e+00	-1.389378e-01	3.438938e+00
5.646425646789389e-09	3.443012e+00	-1.371781e-01	3.437178e+00
5.671868068944307e-09	3.441254e+00	-1.352656e-01	3.435266e+00
5.707147436708332e-09	3.438562e+00	-1.323761e-01	3.432376e+00
5.732104597636830e-09	3.436434e+00	-1.301127e-01	3.430113e+00
5.757175525764638e-09	3.434133e+00	-1.276760e-01	3.427676e+00
5.774933080497173e-09	3.432479e+00	-1.259235e-01	3.425923e+00
5.794769594511187e-09	3.430647e+00	-1.239817e-01	3.423982e+00
5.819284977888778e-09	3.428325e+00	-1.215373e-01	3.421537e+00
5.847819357800869e-09	3.425399e+00	-1.184827e-01	3.418483e+00
5.880867479658049e-09	3.421751e+00	-1.146882e-01	3.414688e+00
5.919581417138522e-09	3.417394e+00	-1.101537e-01	3.410154e+00
5.941932707981057e-09	3.414889e+00	-1.075523e-01	3.407552e+00
5.964299150835313e-09	3.412321e+00	-1.048989e-01	3.404899e+00
5.987678021658896e-09	3.409467e+00	-1.019665e-01	3.401967e+00
6.011201361118422e-09	3.406276e+00	-9.871548e-02	3.398715e+00
6.038643028711649e-09	3.402055e+00	-9.443765e-02	3.394438e+00
6.069412717876956e-09	3.396982e+00	-8.928826e-02	3.389288e+00
6.095285901732748e-09	3.392765e+00	-8.499240e-02	3.384992e+00
6.112107468268377e-09	3.390108e+00	-8.229253e-02	3.382293e+00
6.131846762068139e-09	3.386970e+00	-7.911941e-02	3.379119e+00
6.145099684848125e-09	3.384777e+00	-7.690759e-02	3.376908e+00
6.165994925178611e-09	3.381193e+00	-7.329512e-02	3.373295e+00
6.199520662637265e-09	3.375319e+00	-6.737901e-02	3.367379e+00
6.225295169013322e-09	3.370631e+00	-6.267466e-02	3.362675e+00
6.251202866244103e-09	3.365600e+00	-5.764690e-02	3.357647e+00
6.278935044990011e-09	3.359924e+00	-5.197515e-02	3.351975e+00
6.316258810962643e-09	3.352242e+00	-4.429020e-02	3.344290e+00
6.347026040903074e-09	3.346062e+00	-3.811498e-02	3.338115e+00
6.383069768439140e-09	3.338906e+00	-3.098583e-02	3.330986e+00
6.414364760160553e-09	3.332602e+00	-2.472196e-02	3.324722e+00
6.440865395148231e-09	3.327156e+00	-1.931895e-02	3.319319e+00
6.469904502403122e-09	3.321170e+00	-1.337969e-02	3.313380e+00
6.488088263296799e-09	3.317518e+00	-9.755129e-03	3.309755e+00
6.516618810102635e-09	3.311999e+00	-4.283348e-03	3.304283e+00
6.543756604426361e-09	3.306903e+00	7.597653e-04	3.299240e+00
6.560936730623543e-09	3.303744e+00	3.879988e-03	3.296120e+00
6.581525192952881e-09	3.299960e+00	7.606139e-03	3.292394e+00
6.597479432563101e-09	3.296953e+00	1.056017e-02	3.289440e+00
6.616848022214963e-09	3.293201e+00	1.424477e-02	3.285755e+00
6.637702836693340e-09	3.289173e+00	1.821053e-02	3.281790e+00
6.657095359925676e-09	3.285566e+00	2.176852e-02	3.278231e+00
6.670723911468450e-09	3.283193e+00	2.410849e-02	3.275892e+00
6.691948021880237e-09	3.279726e+00	2.752078e-02	3.272479e+00
6.707331095925688e-09	3.277318e+00	2.988365e-02	3.270116e+00
6.722174538830790e-09	3.275049e+00	3.210188e-02	3.267898e+00
6.736894950564697e-09	3.272794e+00	3.430099e-02	3.265699e+00
6.751792604238399e-09	3.270460e+00	3.657049e-02	3.263429e+00
6.763687149738741e-09	3.268548e+00	3.843107e-02	3.261569e+00
6.780175949886996e-09	3.265898e+00	4.101596e-02	3.258984e+00
6.801906216788374e-09	3.262570e+00	4.427087e-02	3.255729e+00
6.823642208888134e-09	3.259509e+00	4.726156e-02	3.252738e+00
6.846632061691853e-09	3.256525e+00	5.016201e-02	3.249838e+00
6.877067043952884e-09	3.252747e+00	5.381622e-02	3.246184e+00
6.900615859916134e-09	3.249891e+00	5.657274e-02	3.243427e+00
6.927363184171400e-09	3.246745e+00	5.960872e-02	3.240391e+00
6.943288910459029e-09	3.244981e+00	6.130861e-02	3.238691e+00
6.967975960788189e-09	3.242486e+00	6.370708e-02	3.236293e+00
6.999521560735082e-09	3.239633e+00	6.643682e-02	3.233563e+00
7.034980018255870e-09	3.236785e+00	6.914146e-02	3.230859e+00
7.060249380593268e-09	3.234969e+00	7.085201e-02	3.229148e+00
7.097465990990907e-09	3.232551e+00	7.311322e-02	3.226887e+00
7.126765640787503e-09	3.230904e+00	7.464239e-02	3.225358e+00
7.161292304028402e-09	3.229369e+00	7.604358e-02	3.223956e+00
7.199967843362497e-09	3.228028e+00	7.722873e-02	3.222771e+00
7.239596133183824e-09	3.226973e+00	7.812387e-02	3.221876e+00
7.287334487687423e-09	3.226170e+00	7.874776e-02	3.221252e+00
7.320067872863028e-09	3.226043e+00	7.875828e-02	3.221242e+00
7.358027709629820e-09	3.226263e+00	7.839853e-02	3.221601e+00
7.387074012020176e-09	3.226483e+00	7.806464e-02	3.221936e+00
7.422483007457676e-09	3.226757e+00	7.765584e-02	3.222344e+00
7.454781578274718e-09	3.227141e+00	7.715958e-02	3.222841e+00
7.482723255269839e-09	3.227639e+00	7.656580e-02	3.223434e+00
7.511060833140036e-09	3.228232e+00	7.587312e-02	3.224127e+00
7.542860329875036e-09	3.228963e+00	7.503430e-02	3.224966e+00
7.574184733340759e-09	3.229757e+00	7.413547e-02	3.225864e+00
7.611709500644224e-09	3.230671e+00	7.308841e-02	3.226912e+00
7.650895913430806e-09	3.231540e+00	7.208480e-02	3.227915e+00
7.698173406656396e-09	3.232738e+00	7.074265e-02	3.229257e+00
7.746617247577479e-09	3.234219e+00	6.911570e-02	3.230884e+00
7.798606667452426e-09	3.235743e+00	6.742373e-02	3.232576e+00
7.847617559213038e-09	3.236904e+00	6.610537e-02	3.233895e+00
7.887059555844818e-09	3.237739e+00	6.515107e-02	3.234849e+00
7.929367777477620e-09	3.238613e+00	6.414796e-02	3.235852e+00
7.953461902173859e-09	3.239008e+00	6.367304e-02	3.236327e+00
7.983527942286317e-09	3.239308e+00	6.326953e-02	3.236730e+00
8.003414570965165e-09	3.239413e+00	6.309889e-02	3.236901e+00
8.029203525109760e-09	3.239521e+00	6.291220e-02	3.237088e+00
8.055565454831996e-09	3.239694e+00	6.266277e-02	3.237337e+00
8.092967403048532e-09	3.239982e+00	6.225901e-02	3.237741e+00
8.109298925236552e-09	3.240039e+00	6.214450e-02	3.237855e+00
8.128698037567735e-09	3.239981e+00	6.213010e-02	3.237870e+00
8.138320113388376e-09	3.239910e+00	6.216729e-02	3.237833e+00
8.153354934277583e-09	3.239789e+00	6.224209e-02	3.237758e+00
8.169304248453613e-09	3.239709e+00	6.227664e-02	3.237723e+00
8.184596678514828e-09	3.239690e+00	6.225350e-02	3.237746e+00
8.194101007817184e-09	3.239701e+00	6.221525e-02	3.237785e+00
8.202467125824130e-09	3.239713e+00	6.217641e-02	3.237824e+00
8.211162170889541e-09	3.239717e+00	6.214376e-02	3.237856e+00
8.220847296045775e-09	3.239707e+00	6.212066e-02	3.237879e+00
8.229764087507477e-09	3.239689e+00	6.210997e-02	3.237890e+00
8.247597670430883e-09	3.239633e+00	6.210759e-02	3.237892e+00
8.271641212087105e-09	3.239520e+00	6.213997e-02	3.237860e+00
8.286770521188846e-09	3.239413e+00	6.219539e-02	3.237805e+00
8.300243940704792e-09	3.239290e+00	6.227300e-02	3.237727e+00
8.306714795016081e-09	3.239225e+00	6.231652e-02	3.237684e+00
8.313504808311966e-09	3.239156e+00	6.236317e-02	3.237637e+00
8.320440308417192e-09	3.239092e+00	6.240605e-02	3.237594e+00
8.334311308627646e-09	3.238979e+00	6.247615e-02	3.237524e+00
8.348383267823107e-09	3.238878e+00	6.253330e-02	3.237467e+00
8.366960539284798e-09	3.238753e+00	6.259893e-02	3.237401e+00
8.389003772723242e-09	3.238606e+00	6.267463e-02	3.237325e+00
8.410313138953897e-09	3.238461e+00	6.274965e-02	3.237250e+00
8.415499103485267e-09	3.238423e+00	6.277034e-02	3.237230e+00
8.420346178170397e-09	3.238384e+00	6.279320e-02	3.237207e+00
8.424094767782019e-09	3.238349e+00	6.281391e-02	3.237186e+00
8.428678517629137e-09	3.238303e+00	6.284340e-02	3.237157e+00
8.432935149881588e-09	3.238257e+00	6.287505e-02	3.237125e+00
8.441448414386487e-09	3.238157e+00	6.294545e-02	3.237055e+00
8.449333426071079e-09	3.238065e+00	6.301152e-02	3.236989e+00
8.460850105003097e-09	3.237938e+00	6.310242e-02	3.236897e+00
8.463955348378472e-09	3.237907e+00	6.312401e-02	3.236876e+00
8.466071612057902e-09	3.237888e+00	6.313685e-02	3.236863e+00
8.468170447578846e-09	3.237870e+00	6.314859e-02	3.236851e+00
8.471463276898727e-09	3.237842e+00	6.316597e-02	3.236834e+00
8.474905343714620e-09	3.237813e+00	6.318381e-02	3.236816e+00
8.480291339446626e-09	3.237766e+00	6.321294e-02	3.236787e+00
8.486684346302390e-09	3.237705e+00	6.325165e-02	3.236748e+00
8.497275519836617e-09	3.237597e+00	6.332336e-02	3.236677e+00
8.513885841522572e-09	3.237430e+00	6.343620e-02	3.236564e+00
8.528843862323976e-09	3.237301e+00	6.351937e-02	3.236480e+00
8.544077920860384e-09	3.237206e+00	6.356760e-02	3.236432e+00
8.563153098818379e-09	3.237127e+00	6.358773e-02	3.236412e+00
8.586549951286280e-09	3.237030e+00	6.360666e-02	3.236393e+00
8.600504741854459e-09	3.236943e+00	6.364506e-02	3.236355e+00
8.613236717156949e-09	3.236834e+00	6.370908e-02	3.236291e+00
8.627158534199323e-09	3.236714e+00	6.378442e-02	3.236216e+00
8.641077197882423e-09	3.236624e+00	6.383261e-02	3.236167e+00
8.657829586558852e-09	3.236575e+00	6.383454e-02	3.236166e+00
8.672941061240535e-09	3.236582e+00	6.378337e-02	3.236217e+00
8.687184504352564e-09	3.236626e+00	6.369779e-02	3.236302e+00
8.703484999960544e-09	3.236689e+00	6.358336e-02	3.236417e+00
8.711989344926967e-09	3.236719e+00	6.352623e-02	3.236474e+00
8.719943779207740e-09	3.236742e+00	6.347778e-02	3.236522e+00
8.728785415247613e-09	3.236767e+00	6.342530e-02	3.236575e+00
8.734682980724705e-09	3.236787e+00	6.338788e-02	3.236612e+00
8.739101176103414e-09	3.236805e+00	6.335671e-02	3.236643e+00
8.744655306755570e-09	3.236831e+00	6.331416e-02	3.236686e+00
8.748909068017068e-09	3.236852e+00	6.328002e-02	3.236720e+00
8.752659306077635e-09	3.236872e+00	6.324929e-02	3.236751e+00
8.756858902735187e-09	3.236893e+00	6.321489e-02	3.236785e+00
8.761537636658081e-09	3.236916e+00	6.317698e-02	3.236823e+00
8.765942099003519e-09	3.236938e+00	6.314155e-02	3.236858e+00
