time	V(far)	V(near)	V(probe)
0.000000000000000e+00	2.489260e-03	2.489260e-03	2.657687e+00
1.000000000000000e-09	2.489260e-03	2.489260e-03	2.657687e+00
1.248610568318582e-09	2.489260e-03	2.489260e-03	2.657687e+00
1.250856815379704e-09	6.526479e-02	6.580966e-02	2.720462e+00
1.252046280744190e-09	1.283976e-01	1.298915e-01	2.783595e+00
1.252992724286942e-09	1.740317e-01	1.768820e-01	2.829229e+00
1.253996861389715e-09	2.183947e-01	2.234100e-01	2.873592e+00
1.256005135595262e-09	2.960684e-01	3.080950e-01	2.951266e+00
1.259183556432292e-09	3.936501e-01	4.251188e-01	3.048848e+00
1.263083356161603e-09	4.801591e-01	5.504656e-01	3.135357e+00
1.268066409766953e-09	5.527697e-01	6.956260e-01	3.207967e+00
1.273988857854076e-09	6.022042e-01	8.581739e-01	3.257402e+00
1.281463224136266e-09	6.302242e-01	1.053408e+00	3.285422e+00
1.289983873337916e-09	6.359391e-01	1.257096e+00	3.291137e+00
1.300020767436937e-09	6.244200e-01	1.458363e+00	3.279618e+00
1.312617661310415e-09	5.962359e-01	1.642517e+00	3.251434e+00
1.331900331072851e-09	5.386917e-01	1.805359e+00	3.193889e+00
1.349759682619471e-09	4.764473e-01	1.880950e+00	3.131645e+00
1.373628963009883e-09	3.865632e-01	1.950958e+00	3.041761e+00
1.398839227873865e-09	2.895238e-01	2.018666e+00	2.944721e+00
1.430473779536432e-09	1.748907e-01	2.099894e+00	2.830088e+00
1.460457632216578e-09	8.167882e-02	2.178964e+00	2.736876e+00
1.467455936600197e-09	6.272229e-02	2.199028e+00	2.717920e+00
1.476787009111689e-09	3.935104e-02	2.227480e+00	2.694549e+00
1.481337854977016e-09	2.875676e-02	2.242074e+00	2.683954e+00
1.490439546707671e-09	9.177998e-03	2.272637e+00	2.664376e+00
1.500000000000000e-09	-9.073608e-03	2.306619e+00	2.646124e+00
1.502868135987699e-09	-1.407640e-02	2.317180e+00	2.641121e+00
1.506692317304631e-09	-2.043536e-02	2.331487e+00	2.634762e+00
1.514340679938495e-09	-3.205001e-02	2.360872e+00	2.623148e+00
1.529637405206222e-09	-5.106197e-02	2.422339e+00	2.604136e+00
1.560230855741677e-09	-7.452536e-02	2.552540e+00	2.580672e+00
1.591080419924300e-09	-8.327456e-02	2.687104e+00	2.571923e+00
1.618962657342002e-09	-8.421586e-02	2.803801e+00	2.570982e+00
1.648900943175456e-09	-8.448608e-02	2.915525e+00	2.570712e+00
1.676915085241880e-09	-8.884881e-02	3.001414e+00	2.566349e+00
1.710140888003977e-09	-1.033717e-01	3.074770e+00	2.551826e+00
1.750762680760681e-09	-1.356058e-01	3.121271e+00	2.519592e+00
1.787403052591199e-09	-1.738450e-01	3.127340e+00	2.481353e+00
1.823290412699293e-09	-2.109270e-01	3.110282e+00	2.444271e+00
1.862978391818300e-09	-2.389428e-01	3.079804e+00	2.416255e+00
1.873935762420524e-09	-2.428354e-01	3.070974e+00	2.412332e+00
1.879287335622154e-09	-2.422993e-01	3.066842e+00	2.410928e+00
1.881258813445764e-09	-2.405677e-01	3.065360e+00	2.410123e+00
1.883138178140838e-09	-2.384242e-01	3.063970e+00	2.409930e+00
1.885035963670247e-09	-2.336406e-01	3.062590e+00	2.407288e+00
1.886839915852373e-09	-2.271807e-01	3.061301e+00	2.407237e+00
1.888809855609454e-09	-2.166457e-01	3.059921e+00	2.401969e+00
1.891073888931602e-09	-2.020157e-01	3.058372e+00	2.402089e+00
1.893992757986934e-09	-1.753368e-01	3.056435e+00	2.389185e+00
1.896818801408944e-09	-1.456603e-01	3.054629e+00	2.389655e+00
1.900270141446606e-09	-9.946257e-02	3.052519e+00	2.364114e+00
1.903718541413171e-09	-5.020519e-02	3.050522e+00	2.365170e+00
1.908156538160133e-09	2.243224e-02	3.048123e+00	2.318308e+00
1.912969423311876e-09	9.559612e-02	3.045751e+00	2.320670e+00
1.918170537655874e-09	1.761620e-01	3.043466e+00	2.242745e+00
1.926177916611517e-09	3.241220e-01	3.040538e+00	2.174160e+00
1.930055586922866e-09	3.531225e-01	3.039383e+00	2.177536e+00
1.935209118286432e-09	3.386545e-01	3.038119e+00	2.182519e+00
1.938190007250251e-09	3.505316e-01	3.037530e+00	2.070448e+00
1.941919264786728e-09	3.841343e-01	3.036940e+00	2.074633e+00
1.944667667564772e-09	3.846108e-01	3.036608e+00	2.077899e+00
1.948083843167308e-09	3.682657e-01	3.036319e+00	2.082170e+00
1.954156394321376e-09	3.166552e-01	3.036134e+00	2.090325e+00
1.957681342080884e-09	3.271481e-01	3.036216e+00	1.926643e+00
1.961488766548170e-09	3.669078e-01	3.036458e+00	1.932360e+00
1.964065923881243e-09	3.733341e-01	3.036710e+00	1.936378e+00
1.967432502261612e-09	3.670487e-01	3.037143e+00	1.941798e+00
1.973577062118193e-09	3.342234e-01	3.038223e+00	1.952170e+00
1.977631786757179e-09	3.417252e-01	3.039132e+00	1.830623e+00
1.981966919373396e-09	3.699328e-01	3.040265e+00	1.838553e+00
1.985303888386768e-09	3.724944e-01	3.041244e+00	1.844833e+00
1.989412992894946e-09	3.642846e-01	3.042568e+00	1.852761e+00
1.996286476208117e-09	3.411544e-01	3.045042e+00	1.866458e+00
2.000767373822959e-09	3.649518e-01	3.046811e+00	1.789993e+00
2.005493105462061e-09	4.129396e-01	3.048788e+00	1.799883e+00
2.008949807380629e-09	4.280413e-01	3.050297e+00	1.807228e+00
2.013278279684104e-09	4.351884e-01	3.052244e+00	1.816535e+00
2.020406070943482e-09	4.364148e-01	3.055549e+00	1.832065e+00
2.025292868368693e-09	4.794257e-01	3.057857e+00	1.816428e+00
2.030353409532165e-09	5.461897e-01	3.060251e+00	1.827613e+00
2.034289229278568e-09	5.722874e-01	3.062098e+00	1.836322e+00
2.039002241567070e-09	5.890444e-01	3.064272e+00	1.846732e+00
2.046606034668411e-09	6.037309e-01	3.067632e+00	1.863406e+00
2.055023861930444e-09	6.194901e-01	3.071043e+00	1.881557e+00
2.061226904997397e-09	7.063077e-01	3.073282e+00	1.940434e+00
2.067190512220036e-09	8.175297e-01	3.075160e+00	1.952695e+00
2.071783454443698e-09	8.583769e-01	3.076396e+00	1.961894e+00
2.077028169957264e-09	8.830235e-01	3.077556e+00	1.972099e+00
2.084808412130984e-09	9.029861e-01	3.078724e+00	1.986572e+00
2.091358096452380e-09	9.728806e-01	3.079149e+00	2.088215e+00
2.098002275359180e-09	1.075385e+00	3.079007e+00	2.122948e+00
2.104097547280888e-09	1.134764e+00	3.078334e+00	2.155044e+00
2.111097894570386e-09	1.185139e+00	3.076881e+00	2.191934e+00
2.123132033217768e-09	1.257637e+00	3.072583e+00	2.254867e+00
2.137748009807846e-09	1.343050e+00	3.064160e+00	2.329426e+00
2.162316013542383e-09	1.493595e+00	3.041964e+00	2.446434e+00
2.210511642669351e-09	1.779816e+00	2.973572e+00	2.636756e+00
2.246005680292720e-09	1.966189e+00	2.908764e+00	2.740462e+00
2.271147694362613e-09	2.129432e+00	2.861079e+00	2.871495e+00
2.292708789157769e-09	2.194409e+00	2.822571e+00	2.836662e+00
2.312154500031509e-09	2.230424e+00	2.791911e+00	2.867681e+00
2.330345093892276e-09	2.337972e+00	2.768202e+00	2.907738e+00
2.348682337202786e-09	2.425853e+00	2.750259e+00	2.918472e+00
2.366993943807251e-09	2.484049e+00	2.739037e+00	2.908906e+00
2.392304369572706e-09	2.615855e+00	2.735103e+00	2.974557e+00
2.421706798534508e-09	2.777319e+00	2.746719e+00	3.011260e+00
2.446099350556997e-09	2.874440e+00	2.767848e+00	3.043811e+00
2.466861526538673e-09	2.965266e+00	2.792041e+00	3.062202e+00
2.488125685448365e-09	3.054657e+00	2.820448e+00	3.080508e+00
2.512062261829018e-09	3.151112e+00	2.850586e+00	3.093907e+00
2.539645776528591e-09	3.247847e+00	2.940252e+00	3.096702e+00
2.569789497223437e-09	3.331236e+00	2.925096e+00	3.080872e+00
2.596053882270685e-09	3.382893e+00	2.741212e+00	3.050128e+00
2.618017225162571e-09	3.411573e+00	2.688027e+00	3.013562e+00
2.641212769831535e-09	3.428927e+00	2.799205e+00	2.966319e+00
2.665481653137402e-09	3.433804e+00	2.920542e+00	2.908985e+00
2.690545227307337e-09	3.425618e+00	2.917508e+00	2.842910e+00
2.720870148298994e-09	3.401421e+00	2.890135e+00	2.758010e+00
2.742861980248926e-09	3.377316e+00	2.925807e+00	2.696628e+00
2.765554271802777e-09	3.350082e+00	2.893102e+00	2.636993e+00
2.791683635228026e-09	3.319533e+00	2.831370e+00	2.576832e+00
2.822779511018087e-09	3.311116e+00	2.786225e+00	2.558028e+00
2.853264137051121e-09	3.272964e+00	2.918316e+00	2.489929e+00
2.878331457364860e-09	3.247263e+00	3.027475e+00	2.478597e+00
2.903886260350656e-09	3.263968e+00	2.979292e+00	2.478830e+00
2.931376330077669e-09	3.271570e+00	2.990877e+00	2.489230e+00
2.956207684234369e-09	3.277981e+00	3.064852e+00	2.504783e+00
2.973839818618911e-09	3.281676e+00	3.134465e+00	2.517484e+00
2.989446075080855e-09	3.283353e+00	3.193717e+00	2.528057e+00
3.005221123437564e-09	3.283138e+00	3.205085e+00	2.538326e+00
3.020873175609040e-09	3.280433e+00	3.195619e+00	2.546086e+00
3.043922387062498e-09	3.269229e+00	3.174797e+00	2.550641e+00
3.065066458825088e-09	3.255597e+00	3.270013e+00	2.553904e+00
3.088872264021750e-09	3.234265e+00	3.378616e+00	2.548438e+00
3.110563722556093e-09	3.206167e+00	3.318466e+00	2.537295e+00
3.131425103774332e-09	3.174807e+00	3.289430e+00	2.522006e+00
3.151900599387570e-09	3.150094e+00	3.298375e+00	2.504409e+00
3.170181901868077e-09	3.137167e+00	3.307716e+00	2.488075e+00
3.187562382114621e-09	3.108156e+00	3.273472e+00	2.465459e+00
3.190354496251164e-09	3.091526e+00	3.281142e+00	2.477342e+00
3.192010711092008e-09	3.080974e+00	3.292903e+00	2.471600e+00
3.193395812018232e-09	3.076271e+00	3.298482e+00	2.469874e+00
3.194267265668334e-09	3.073616e+00	3.301156e+00	2.468595e+00
3.195496861220484e-09	3.070231e+00	3.303912e+00	2.467070e+00
3.196953835700184e-09	3.066524e+00	3.305924e+00	2.465288e+00
3.199249815705456e-09	3.061239e+00	3.306699e+00	2.462512e+00
3.202283133636838e-09	3.055116e+00	3.304006e+00	2.458904e+00
3.205956640537222e-09	3.048719e+00	3.296536e+00	2.454637e+00
3.210141208594514e-09	3.042441e+00	3.284473e+00	2.449922e+00
3.214964103182512e-09	3.036169e+00	3.268496e+00	2.444704e+00
3.220458481599406e-09	3.029938e+00	3.250472e+00	2.439071e+00
3.221584836031761e-09	3.017596e+00	3.252990e+00	2.450767e+00
3.222336298787461e-09	3.002677e+00	3.258478e+00	2.450034e+00
3.223337750154831e-09	2.985023e+00	3.265070e+00	2.449069e+00
3.224371106536898e-09	2.969230e+00	3.271044e+00	2.448087e+00
3.225301211532935e-09	2.956909e+00	3.275734e+00	2.447215e+00
3.227022143258339e-09	2.938186e+00	3.282818e+00	2.445631e+00
3.229081504226320e-09	2.921688e+00	3.288801e+00	2.443788e+00
3.232137354055094e-09	2.906294e+00	3.293395e+00	2.441160e+00
3.235708989810607e-09	2.898247e+00	3.293513e+00	2.438256e+00
3.240679470186525e-09	2.897957e+00	3.287153e+00	2.434523e+00
3.246795810700133e-09	2.903872e+00	3.296438e+00	2.443326e+00
3.256364111958698e-09	2.918224e+00	3.316639e+00	2.438137e+00
3.263629318182859e-09	2.984554e+00	3.326781e+00	2.447280e+00
3.270884003324065e-09	3.060121e+00	3.336366e+00	2.445157e+00
3.278469608879228e-09	3.075994e+00	3.322006e+00	2.443971e+00
3.283996546505766e-09	3.070295e+00	3.305000e+00	2.443731e+00
3.290418818232754e-09	3.057939e+00	3.285615e+00	2.444125e+00
3.296326443828521e-09	3.084153e+00	3.289016e+00	2.456341e+00
3.300258977411602e-09	3.115560e+00	3.301463e+00	2.457358e+00
3.304795240808223e-09	3.128509e+00	3.309127e+00	2.458873e+00
3.308488019419099e-09	3.127833e+00	3.311419e+00	2.460374e+00
3.312382165516913e-09	3.121327e+00	3.311320e+00	2.462211e+00
3.318504215914232e-09	3.108144e+00	3.322117e+00	2.473416e+00
3.328197003429330e-09	3.086933e+00	3.342988e+00	2.480042e+00
3.338289392894233e-09	3.068279e+00	3.341664e+00	2.488441e+00
3.349798844281259e-09	3.054941e+00	3.357710e+00	2.507341e+00
3.360256960984652e-09	3.052788e+00	3.379334e+00	2.518894e+00
3.370906403724539e-09	3.078493e+00	3.392370e+00	2.535106e+00
3.378127462000283e-09	3.101609e+00	3.400685e+00	2.544290e+00
3.383446296086275e-09	3.110812e+00	3.401789e+00	2.551248e+00
3.391735623924953e-09	3.114370e+00	3.409041e+00	2.564883e+00
3.399021814327912e-09	3.115322e+00	3.418373e+00	2.574767e+00
3.406285703253297e-09	3.123492e+00	3.422500e+00	2.584669e+00
3.420813481104067e-09	3.120408e+00	3.438385e+00	2.607497e+00
3.435732765175968e-09	3.129214e+00	3.455764e+00	2.626735e+00
3.448639134117970e-09	3.158487e+00	3.466177e+00	2.645680e+00
3.462656700371146e-09	3.187105e+00	3.476310e+00	2.660646e+00
3.476052916547160e-09	3.218527e+00	3.479589e+00	2.672822e+00
3.482182008892064e-09	3.261098e+00	3.480918e+00	2.682925e+00
3.487858268892355e-09	3.309118e+00	3.482319e+00	2.686898e+00
3.493723808620074e-09	3.328691e+00	3.483430e+00	2.690513e+00
3.499167064131392e-09	3.332802e+00	3.484140e+00	2.693412e+00
3.505428725878413e-09	3.351350e+00	3.476450e+00	2.700571e+00
3.517952049372455e-09	3.378347e+00	3.458854e+00	2.704342e+00
3.526010414583095e-09	3.330105e+00	3.464030e+00	2.710823e+00
3.533529988190692e-09	3.275440e+00	3.472891e+00	2.711885e+00
3.541609685920284e-09	3.255787e+00	3.476433e+00	2.711214e+00
3.548755125244767e-09	3.255305e+00	3.474872e+00	2.709852e+00
3.557692401567488e-09	3.253244e+00	3.464117e+00	2.713483e+00
3.569920594521900e-09	3.252512e+00	3.444548e+00	2.708226e+00
3.580233777321212e-09	3.275146e+00	3.425531e+00	2.710744e+00
3.589769937271289e-09	3.299130e+00	3.406636e+00	2.706693e+00
3.599895600155583e-09	3.313146e+00	3.391827e+00	2.703204e+00
3.610121515437630e-09	3.326153e+00	3.374728e+00	2.703461e+00
3.621409077976989e-09	3.324387e+00	3.359458e+00	2.695003e+00
3.631237771384278e-09	3.304443e+00	3.350446e+00	2.691314e+00
3.643299639784467e-09	3.281468e+00	3.339868e+00	2.681833e+00
3.657924623939210e-09	3.244604e+00	3.318106e+00	2.683307e+00
3.669343626501759e-09	3.219399e+00	3.294850e+00	2.681390e+00
3.681644410196623e-09	3.220166e+00	3.281585e+00	2.674614e+00
3.688817883856157e-09	3.250930e+00	3.272219e+00	2.683646e+00
3.695556705812805e-09	3.288154e+00	3.261052e+00	2.682048e+00
3.702837951607462e-09	3.301495e+00	3.255981e+00	2.679950e+00
3.709452627250130e-09	3.300744e+00	3.255349e+00	2.678636e+00
3.717247619029256e-09	3.325472e+00	3.250762e+00	2.689071e+00
3.725055181990446e-09	3.355312e+00	3.244423e+00	2.689116e+00
3.733650659888702e-09	3.352223e+00	3.243406e+00	2.690154e+00
3.741285652451779e-09	3.316143e+00	3.237866e+00	2.704370e+00
3.747954413504161e-09	3.279590e+00	3.231054e+00	2.706605e+00
3.755039198987399e-09	3.268212e+00	3.230394e+00	2.709650e+00
3.762259758403529e-09	3.266857e+00	3.228478e+00	2.724101e+00
3.770100553917232e-09	3.271699e+00	3.226491e+00	2.728985e+00
3.777841455761104e-09	3.290997e+00	3.227017e+00	2.742293e+00
3.784114914099391e-09	3.310267e+00	3.228334e+00	2.747300e+00
3.790068108741381e-09	3.323411e+00	3.232988e+00	2.752436e+00
3.796701520126878e-09	3.341917e+00	3.237510e+00	2.767658e+00
3.805725719014702e-09	3.366078e+00	3.243390e+00	2.776580e+00
3.812259661236703e-09	3.368904e+00	3.253770e+00	2.791997e+00
3.818790149764105e-09	3.376725e+00	3.254643e+00	2.800532e+00
3.821977586903804e-09	3.387876e+00	3.248381e+00	2.805436e+00
3.826437644216914e-09	3.402939e+00	3.241138e+00	2.812325e+00
3.830652498259259e-09	3.412796e+00	3.237231e+00	2.818850e+00
3.836122281376998e-09	3.417856e+00	3.236886e+00	2.827312e+00
3.842324030928925e-09	3.415994e+00	3.242047e+00	2.836860e+00
3.848136890692129e-09	3.413214e+00	3.265830e+00	2.845719e+00
3.853432162725144e-09	3.422891e+00	3.276888e+00	2.853672e+00
3.856855231714519e-09	3.436326e+00	3.265401e+00	2.858736e+00
3.861148142700490e-09	3.451612e+00	3.250844e+00	2.864983e+00
3.865558101503126e-09	3.463121e+00	3.242557e+00	2.869850e+00
3.870126226368611e-09	3.470548e+00	3.245699e+00	2.877606e+00
3.875469837605658e-09	3.478071e+00	3.263311e+00	2.884789e+00
3.881258278237159e-09	3.486227e+00	3.285346e+00	2.890684e+00
3.889338222133169e-09	3.502431e+00	3.306659e+00	2.902015e+00
3.897321465445281e-09	3.522190e+00	3.355701e+00	2.910819e+00
3.903596870638138e-09	3.527412e+00	3.404865e+00	2.917069e+00
3.909212056136387e-09	3.520998e+00	3.420394e+00	2.922104e+00
3.911536168962808e-09	3.514495e+00	3.417078e+00	2.924618e+00
3.913741374252742e-09	3.507574e+00	3.409817e+00	2.926027e+00
3.916945678438526e-09	3.501074e+00	3.396263e+00	2.928097e+00
3.921974530643053e-09	3.495939e+00	3.360783e+00	2.931376e+00
3.926836915050870e-09	3.499401e+00	3.334042e+00	2.934075e+00
3.930986995312263e-09	3.507789e+00	3.328654e+00	2.936011e+00
3.936946134449650e-09	3.517979e+00	3.320892e+00	2.938203e+00
3.942634333667391e-09	3.524388e+00	3.306315e+00	2.939648e+00
3.950085298893280e-09	3.533295e+00	3.280152e+00	2.940598e+00
3.958392359981770e-09	3.543709e+00	3.253104e+00	2.940418e+00
3.963138315891431e-09	3.544303e+00	3.234900e+00	2.939046e+00
3.968963815077166e-09	3.541476e+00	3.221781e+00	2.938367e+00
3.973976569737424e-09	3.540629e+00	3.224688e+00	2.936584e+00
3.979439799620234e-09	3.540751e+00	3.231287e+00	2.934429e+00
3.986427109927272e-09	3.544077e+00	3.243009e+00	2.930799e+00
3.999376211225433e-09	3.544213e+00	3.266857e+00	2.922046e+00
4.012764421770099e-09	3.531007e+00	3.293622e+00	2.910360e+00
4.027587056711956e-09	3.515713e+00	3.296343e+00	2.894557e+00
4.038104193769194e-09	3.505685e+00	3.279412e+00	2.881721e+00
4.050476454433770e-09	3.494077e+00	3.263740e+00	2.865220e+00
4.065542781977859e-09	3.483243e+00	3.243834e+00	2.843634e+00
4.081477497163583e-09	3.468997e+00	3.239950e+00	2.819798e+00
4.094544318291080e-09	3.454637e+00	3.247282e+00	2.800056e+00
4.104250205051964e-09	3.443511e+00	3.240160e+00	2.785560e+00
4.115525239945356e-09	3.431042e+00	3.244727e+00	2.769170e+00
4.125345011150724e-09	3.422021e+00	3.250800e+00	2.755465e+00
4.130082993161223e-09	3.414042e+00	3.239002e+00	2.745190e+00
4.133117877473069e-09	3.409332e+00	3.225542e+00	2.745093e+00
4.137088758136361e-09	3.407423e+00	3.207627e+00	2.741817e+00
4.141185560420591e-09	3.406154e+00	3.192359e+00	2.738607e+00
4.143184559188161e-09	3.403340e+00	3.189998e+00	2.732433e+00
4.144877065485893e-09	3.399447e+00	3.191398e+00	2.731199e+00
4.147250947645853e-09	3.395326e+00	3.192706e+00	2.729524e+00
4.150161759264632e-09	3.391920e+00	3.193406e+00	2.727562e+00
4.152144994075643e-09	3.390752e+00	3.192727e+00	2.722035e+00
4.154427276573774e-09	3.390274e+00	3.190942e+00	2.720627e+00
4.157285518290221e-09	3.390032e+00	3.188666e+00	2.718958e+00
4.158315805282240e-09	3.390696e+00	3.183439e+00	2.714238e+00
4.159063927344013e-09	3.391573e+00	3.177035e+00	2.714638e+00
4.160027830171345e-09	3.392511e+00	3.169855e+00	2.714122e+00
4.161388900565016e-09	3.393663e+00	3.160744e+00	2.713415e+00
4.163303202196500e-09	3.394982e+00	3.149872e+00	2.712463e+00
4.165914346516885e-09	3.396314e+00	3.138441e+00	2.711246e+00
4.169086357447778e-09	3.398158e+00	3.125201e+00	2.704994e+00
4.174923051332401e-09	3.400724e+00	3.109008e+00	2.700011e+00
4.181034463450100e-09	3.400968e+00	3.110362e+00	2.698388e+00
4.187021706031650e-09	3.397373e+00	3.126950e+00	2.691286e+00
4.193550806386971e-09	3.392318e+00	3.152536e+00	2.690823e+00
4.201941108907464e-09	3.384318e+00	3.181263e+00	2.683567e+00
4.214898790198766e-09	3.370844e+00	3.224869e+00	2.679434e+00
4.224692271087483e-09	3.367701e+00	3.250071e+00	2.674352e+00
4.230919173901896e-09	3.369870e+00	3.254892e+00	2.677265e+00
4.236635950483397e-09	3.374015e+00	3.252804e+00	2.677174e+00
4.244234934028135e-09	3.380654e+00	3.246340e+00	2.681545e+00
4.251571204943410e-09	3.386632e+00	3.240864e+00	2.678369e+00
4.264232148245396e-09	3.397031e+00	3.230604e+00	2.680754e+00
4.275789177217322e-09	3.407355e+00	3.223435e+00	2.683815e+00
4.283034866284998e-09	3.411459e+00	3.228476e+00	2.686073e+00
4.289595468571451e-09	3.415248e+00	3.239419e+00	2.691763e+00
4.297502190046688e-09	3.415420e+00	3.249484e+00	2.691079e+00
4.312677502236716e-09	3.415669e+00	3.270995e+00	2.696501e+00
4.320105403812848e-09	3.419317e+00	3.300026e+00	2.699061e+00
4.326940999388463e-09	3.421787e+00	3.337278e+00	2.701252e+00
4.334793705645648e-09	3.427370e+00	3.365243e+00	2.703475e+00
4.338922699842009e-09	3.429506e+00	3.372871e+00	2.698479e+00
4.343256854723397e-09	3.432174e+00	3.369299e+00	2.705408e+00
4.347006819471993e-09	3.436231e+00	3.357064e+00	2.708023e+00
4.351364195136981e-09	3.438669e+00	3.354417e+00	2.706698e+00
4.354003712955051e-09	3.438839e+00	3.357235e+00	2.703870e+00
4.358098139976024e-09	3.439426e+00	3.357877e+00	2.706286e+00
4.362322008588883e-09	3.440558e+00	3.357317e+00	2.707447e+00
4.367017079852802e-09	3.441247e+00	3.355486e+00	2.707388e+00
4.370664833344902e-09	3.441613e+00	3.353675e+00	2.709024e+00
4.371584398665482e-09	3.441174e+00	3.350337e+00	2.705771e+00
4.372204816511946e-09	3.440543e+00	3.346364e+00	2.706431e+00
4.373240987934639e-09	3.439703e+00	3.340498e+00	2.706941e+00
4.374228101309695e-09	3.439068e+00	3.335492e+00	2.707327e+00
4.375484210803306e-09	3.438442e+00	3.329838e+00	2.707801e+00
