time	V(far)	V(near)	V(probe)
0.000000000000000e+00	4.461588e-06	4.461588e-06	1.661415e-04
1.000000000000000e-09	4.461588e-06	4.461588e-06	1.661415e-04
1.248610568318584e-09	4.461588e-06	4.461588e-06	1.661415e-04
1.250856815379706e-09	3.700252e-01	3.700520e-01	3.701869e-01
1.252088926162467e-09	7.170618e-01	7.171368e-01	7.172235e-01
1.252902087603194e-09	8.880735e-01	8.882028e-01	8.882352e-01
1.253808175820466e-09	1.038500e+00	1.038715e+00	1.038662e+00
1.255554669305170e-09	1.243007e+00	1.243468e+00	1.243168e+00
1.257566075613992e-09	1.382968e+00	1.383856e+00	1.383129e+00
1.260141821110733e-09	1.478420e+00	1.480091e+00	1.478582e+00
1.262944581048385e-09	1.526507e+00	1.529330e+00	1.526668e+00
1.266718463207163e-09	1.552240e+00	1.557098e+00	1.552402e+00
1.271324172464261e-09	1.560839e+00	1.568888e+00	1.561001e+00
1.278127939494563e-09	1.562161e+00	1.576201e+00	1.562322e+00
1.287812641946973e-09	1.560365e+00	1.585146e+00	1.560527e+00
1.301436035898277e-09	1.557641e+00	1.600795e+00	1.557803e+00
1.317067719259157e-09	1.554416e+00	1.621498e+00	1.554577e+00
1.336879188854997e-09	1.549971e+00	1.648573e+00	1.550133e+00
1.360399019037074e-09	1.543937e+00	1.677659e+00	1.544098e+00
1.392044267642776e-09	1.534054e+00	1.705895e+00	1.534216e+00
1.423664257270568e-09	1.521803e+00	1.719397e+00	1.521964e+00
1.456514525016099e-09	1.506397e+00	1.719865e+00	1.506558e+00
1.464551060577455e-09	1.502215e+00	1.718315e+00	1.502377e+00
1.480624131700167e-09	1.493391e+00	1.714108e+00	1.493553e+00
1.500000000000000e-09	1.481979e+00	1.707951e+00	1.482141e+00
1.505812760489950e-09	1.478395e+00	1.706017e+00	1.478556e+00
1.513563107809883e-09	1.473514e+00	1.703494e+00	1.473675e+00
1.529063802449749e-09	1.463406e+00	1.698889e+00	1.463568e+00
1.560065191729482e-09	1.441932e+00	1.692792e+00	1.442093e+00
1.622067970288947e-09	1.394721e+00	1.697122e+00	1.394883e+00
1.686927377145680e-09	1.340237e+00	1.723216e+00	1.340399e+00
1.772004333105458e-09	1.262363e+00	1.774120e+00	1.262525e+00
1.868346576793221e-09	1.167086e+00	1.835394e+00	1.167248e+00
1.886132972975721e-09	1.149185e+00	1.846418e+00	1.148962e+00
1.894641574090725e-09	1.141184e+00	1.851683e+00	1.140154e+00
1.899556876835884e-09	1.136991e+00	1.854728e+00	1.135050e+00
1.904634649247786e-09	1.133077e+00	1.857879e+00	1.129764e+00
1.909904023678032e-09	1.129133e+00	1.861157e+00	1.124267e+00
1.915771922458022e-09	1.125402e+00	1.864818e+00	1.118130e+00
1.921841505228842e-09	1.122100e+00	1.868622e+00	1.111768e+00
1.931517673191011e-09	1.118331e+00	1.874727e+00	1.101593e+00
1.941453247295628e-09	1.115328e+00	1.881056e+00	1.091112e+00
1.952034897291353e-09	1.113832e+00	1.887874e+00	1.079909e+00
1.965290074800488e-09	1.115902e+00	1.896543e+00	1.065832e+00
1.974070218486454e-09	1.116095e+00	1.902368e+00	1.056484e+00
1.984556701727657e-09	1.112946e+00	1.909415e+00	1.045298e+00
1.992706489005983e-09	1.112139e+00	1.914962e+00	1.036582e+00
2.001674247691734e-09	1.112790e+00	1.921136e+00	1.026988e+00
2.011746390139699e-09	1.113395e+00	1.928158e+00	1.016191e+00
2.024940238844069e-09	1.113476e+00	1.937492e+00	1.002046e+00
2.040344707670767e-09	1.109171e+00	1.948576e+00	9.855125e-01
2.060439113908246e-09	1.097036e+00	1.963310e+00	9.639590e-01
2.082106421964188e-09	1.075139e+00	1.979504e+00	9.407449e-01
2.101752978903742e-09	1.051069e+00	1.994422e+00	9.197487e-01
2.124989577686738e-09	1.020081e+00	2.012297e+00	8.950140e-01
2.152386915627000e-09	9.840575e-01	2.033625e+00	8.660323e-01
2.183417674662342e-09	9.491308e-01	2.058033e+00	8.335087e-01
2.219694980621025e-09	9.212884e-01	2.086821e+00	7.959833e-01
2.261541749406871e-09	9.081340e-01	2.120296e+00	7.534848e-01
2.288773945909365e-09	9.006019e-01	2.142213e+00	7.263402e-01
2.316564711593227e-09	9.037952e-01	2.164675e+00	6.990814e-01
2.345192557710540e-09	9.117479e-01	2.187898e+00	6.715139e-01
2.367647150025342e-09	9.043074e-01	2.206160e+00	6.502625e-01
2.391596191261245e-09	8.897366e-01	2.225665e+00	6.279674e-01
2.406960795033974e-09	9.016934e-01	2.238184e+00	6.138601e-01
2.422697275337574e-09	9.289997e-01	2.251004e+00	5.995876e-01
2.433758483532581e-09	9.392333e-01	2.260008e+00	5.896574e-01
2.447261653726873e-09	9.441986e-01	2.270990e+00	5.776495e-01
2.471495581506189e-09	9.388478e-01	2.290652e+00	5.564147e-01
2.487506878679287e-09	9.531896e-01	2.303589e+00	5.426040e-01
2.503675729313929e-09	9.835774e-01	2.316521e+00	5.288386e-01
2.517140425500613e-09	1.000455e+00	2.326915e+00	5.175117e-01
2.532985529153985e-09	1.014975e+00	2.338327e+00	5.043419e-01
2.560527041675094e-09	1.030849e+00	2.356170e+00	4.818715e-01
2.598027343501865e-09	1.042463e+00	2.385643e+00	4.521270e-01
2.644667038098570e-09	1.054894e+00	2.429920e+00	4.163298e-01
2.706670333886701e-09	1.084322e+00	2.486649e+00	3.704571e-01
2.792650779244871e-09	1.158575e+00	2.526398e+00	3.107130e-01
2.885831976932978e-09	1.272929e+00	2.561952e+00	2.520354e-01
2.985153655560244e-09	1.411386e+00	2.674041e+00	1.937393e-01
3.101991804084451e-09	1.574165e+00	2.775772e+00	1.246778e-01
3.212463745765019e-09	1.720391e+00	2.796695e+00	5.957607e-02
3.317198223037212e-09	1.865894e+00	2.820324e+00	2.896596e-03
3.420297186708489e-09	2.001201e+00	2.891479e+00	-4.640438e-02
3.521184872595961e-09	2.109617e+00	2.999859e+00	-9.168471e-02
3.606676508713726e-09	2.252962e+00	3.096246e+00	-1.324393e-01
3.683788400003360e-09	2.349474e+00	3.120707e+00	-1.738249e-01
3.735202806998138e-09	2.371229e+00	3.110266e+00	-2.033428e-01
3.791883417371652e-09	2.389602e+00	3.107823e+00	-2.355821e-01
3.826464302609495e-09	2.417921e+00	3.155925e+00	-2.545379e-01
3.864015517060009e-09	2.459925e+00	3.232607e+00	-2.749387e-01
3.903284768732596e-09	2.474601e+00	3.250372e+00	-2.968276e-01
3.939988650487481e-09	2.480222e+00	3.236899e+00	-3.176836e-01
3.977112734203464e-09	2.515920e+00	3.264773e+00	-3.384966e-01
4.014791091991524e-09	2.561966e+00	3.316147e+00	-3.592482e-01
4.050515424565406e-09	2.601544e+00	3.356235e+00	-3.790108e-01
4.087257071206018e-09	2.635394e+00	3.387237e+00	-3.998203e-01
4.130649207280352e-09	2.634614e+00	3.374288e+00	-4.247972e-01
4.171039935406734e-09	2.675236e+00	3.395501e+00	-4.477330e-01
4.209420233787635e-09	2.726430e+00	3.436975e+00	-4.689459e-01
4.249254769964592e-09	2.755072e+00	3.469717e+00	-4.906361e-01
4.293484257167440e-09	2.786278e+00	3.536511e+00	-5.148309e-01
4.349599447357515e-09	2.778510e+00	3.575726e+00	-5.460699e-01
4.400392589747100e-09	2.758959e+00	3.554529e+00	-5.739583e-01
4.452493132249501e-09	2.774566e+00	3.538492e+00	-6.001484e-01
4.490898360088195e-09	2.830055e+00	3.562452e+00	-6.172137e-01
4.532652383226250e-09	2.900321e+00	3.621590e+00	-6.340985e-01
4.565600508045331e-09	2.927803e+00	3.661332e+00	-6.467907e-01
4.602547324066495e-09	2.942334e+00	3.682938e+00	-6.605924e-01
4.642222309437114e-09	2.975142e+00	3.708849e+00	-6.745935e-01
4.680174711746172e-09	3.020213e+00	3.738305e+00	-6.869949e-01
4.719706270449193e-09	3.062457e+00	3.764469e+00	-6.989207e-01
4.754711496230713e-09	3.093372e+00	3.776548e+00	-7.086012e-01
4.808207432055866e-09	3.117101e+00	3.761890e+00	-7.211500e-01
4.861271456417635e-09	3.155312e+00	3.783825e+00	-7.303037e-01
4.904897525061292e-09	3.213791e+00	3.820415e+00	-7.356271e-01
4.956471433583398e-09	3.288198e+00	3.845792e+00	-7.404348e-01
4.999310487962380e-09	3.337978e+00	3.854965e+00	-7.436162e-01
5.050571344631369e-09	3.363063e+00	3.847016e+00	-7.462923e-01
5.098210950907606e-09	3.379622e+00	3.843875e+00	-7.472588e-01
5.132996812483840e-09	3.411184e+00	3.859019e+00	-7.469416e-01
5.169532807339646e-09	3.469449e+00	3.900261e+00	-7.459801e-01
5.207612109234448e-09	3.539597e+00	3.947760e+00	-7.448453e-01
5.241060859418039e-09	3.589597e+00	3.962668e+00	-7.440054e-01
5.276899093160219e-09	3.627579e+00	3.949426e+00	-7.430840e-01
5.318281884856278e-09	3.665491e+00	3.931107e+00	-7.414943e-01
5.355887049434566e-09	3.697890e+00	3.926084e+00	-7.393986e-01
5.398628223341358e-09	3.728316e+00	3.927716e+00	-7.364197e-01
5.460388995820826e-09	3.758682e+00	3.929944e+00	-7.310690e-01
5.509897302055984e-09	3.791182e+00	3.924514e+00	-7.255720e-01
5.549209663632341e-09	3.837056e+00	3.928433e+00	-7.202167e-01
5.594004319606972e-09	3.890819e+00	3.947732e+00	-7.132271e-01
5.626813516970113e-09	3.921913e+00	3.964746e+00	-7.077772e-01
5.668742846381671e-09	3.951510e+00	3.967753e+00	-7.006561e-01
5.708842866249452e-09	3.969863e+00	3.961089e+00	-6.935785e-01
5.742248352275988e-09	3.984172e+00	3.957374e+00	-6.873600e-01
5.775541502701546e-09	4.007077e+00	3.949294e+00	-6.808957e-01
5.816182426017667e-09	4.050936e+00	3.950892e+00	-6.729310e-01
5.848366236711501e-09	4.091736e+00	3.966263e+00	-6.668363e-01
5.876083662666856e-09	4.119157e+00	3.984112e+00	-6.619109e-01
5.906795358148240e-09	4.131098e+00	3.996808e+00	-6.568109e-01
5.936239893669268e-09	4.132944e+00	3.992801e+00	-6.521074e-01
5.951505020854909e-09	4.129727e+00	3.986878e+00	-6.496633e-01
5.965920278736913e-09	4.124230e+00	3.981085e+00	-6.473091e-01
5.983124557334692e-09	4.120177e+00	3.974376e+00	-6.444231e-01
6.001386259445566e-09	4.118794e+00	3.967641e+00	-6.412760e-01
6.011396330314466e-09	4.119998e+00	3.962620e+00	-6.395213e-01
6.019203092609769e-09	4.121006e+00	3.960173e+00	-6.381418e-01
6.029630921281705e-09	4.122450e+00	3.958807e+00	-6.362902e-01
6.036577824393109e-09	4.124077e+00	3.957402e+00	-6.350542e-01
6.042707439496808e-09	4.125905e+00	3.955823e+00	-6.339648e-01
6.050325709103066e-09	4.128612e+00	3.953492e+00	-6.326143e-01
6.058859934357993e-09	4.132124e+00	3.950493e+00	-6.311070e-01
6.067760826667070e-09	4.136221e+00	3.947046e+00	-6.295412e-01
6.076546498093813e-09	4.140600e+00	3.943435e+00	-6.280000e-01
6.085251838715949e-09	4.144314e+00	3.942956e+00	-6.264751e-01
6.093303419883703e-09	4.147184e+00	3.945140e+00	-6.250668e-01
6.102309744777575e-09	4.150761e+00	3.946766e+00	-6.234972e-01
6.110914183487923e-09	4.154514e+00	3.947477e+00	-6.220068e-01
6.120949557673192e-09	4.159180e+00	3.947380e+00	-6.202825e-01
6.132321214344937e-09	4.164698e+00	3.946226e+00	-6.183458e-01
6.142650777069968e-09	4.168148e+00	3.946065e+00	-6.165996e-01
6.149557374291433e-09	4.169527e+00	3.946601e+00	-6.154380e-01
6.156025754772360e-09	4.171101e+00	3.946652e+00	-6.143546e-01
6.167203575573578e-09	4.174321e+00	3.945828e+00	-6.124930e-01
6.178810450945401e-09	4.177247e+00	3.947438e+00	-6.105742e-01
6.194717726895203e-09	4.180896e+00	3.951800e+00	-6.079735e-01
6.212332910985877e-09	4.186023e+00	3.952365e+00	-6.051440e-01
6.233728465974381e-09	4.194433e+00	3.960626e+00	-6.017884e-01
6.259281304334481e-09	4.205964e+00	3.978834e+00	-5.979161e-01
6.282511332956152e-09	4.214541e+00	3.984762e+00	-5.945427e-01
6.295696823587920e-09	4.217492e+00	3.985642e+00	-5.926866e-01
6.309745187618649e-09	4.219299e+00	3.985895e+00	-5.907383e-01
6.326195752759491e-09	4.221062e+00	3.980776e+00	-5.884703e-01
6.344436297190897e-09	4.217757e+00	3.974748e+00	-5.859360e-01
6.362207284934110e-09	4.211342e+00	3.968914e+00	-5.834123e-01
6.382864590342798e-09	4.204546e+00	3.959558e+00	-5.803792e-01
6.405051231784372e-09	4.195966e+00	3.949596e+00	-5.769817e-01
6.428771653534271e-09	4.190573e+00	3.937719e+00	-5.731817e-01
6.455157760785246e-09	4.187937e+00	3.930291e+00	-5.687565e-01
6.484633713405898e-09	4.189139e+00	3.934178e+00	-5.636179e-01
6.505877335464197e-09	4.195271e+00	3.941608e+00	-5.598463e-01
6.525140664484772e-09	4.202529e+00	3.949901e+00	-5.564193e-01
6.546738880508382e-09	4.209235e+00	3.955057e+00	-5.525745e-01
6.569883899856624e-09	4.211445e+00	3.952379e+00	-5.484123e-01
6.596043686451635e-09	4.206858e+00	3.941179e+00	-5.435624e-01
6.622473496390168e-09	4.197443e+00	3.923970e+00	-5.384118e-01
6.648539285586787e-09	4.186340e+00	3.907806e+00	-5.330375e-01
6.677379093240049e-09	4.176569e+00	3.895498e+00	-5.267609e-01
6.708174517080714e-09	4.169417e+00	3.891834e+00	-5.197316e-01
6.733265375162012e-09	4.167358e+00	3.895836e+00	-5.137911e-01
6.760178658513364e-09	4.170154e+00	3.903177e+00	-5.072052e-01
6.791592694829352e-09	4.174898e+00	3.912334e+00	-4.991792e-01
6.828555403957252e-09	4.181758e+00	3.918289e+00	-4.891885e-01
6.863884636698152e-09	4.188099e+00	3.916070e+00	-4.790825e-01
6.901409629696120e-09	4.198404e+00	3.909477e+00	-4.678646e-01
6.941798765703514e-09	4.207214e+00	3.901131e+00	-4.554543e-01
6.977691107780715e-09	4.201502e+00	3.893154e+00	-4.443013e-01
7.010047975509830e-09	4.188605e+00	3.881888e+00	-4.342082e-01
7.045396521850595e-09	4.173015e+00	3.862465e+00	-4.230933e-01
7.083165438245353e-09	4.158895e+00	3.843700e+00	-4.110108e-01
7.119650152398350e-09	4.155341e+00	3.831518e+00	-3.991048e-01
7.154901013158539e-09	4.164552e+00	3.826778e+00	-3.874492e-01
7.184081341929211e-09	4.176068e+00	3.829700e+00	-3.777457e-01
7.214413922845176e-09	4.182982e+00	3.834605e+00	-3.676074e-01
7.246246595394674e-09	4.179954e+00	3.833993e+00	-3.568496e-01
7.278742091575958e-09	4.168867e+00	3.823774e+00	-3.456904e-01
7.308481800437680e-09	4.157986e+00	3.807521e+00	-3.353394e-01
7.342722905378327e-09	4.151655e+00	3.787518e+00	-3.233709e-01
7.373423709753708e-09	4.153890e+00	3.772112e+00	-3.126933e-01
7.406559040994390e-09	4.162541e+00	3.760629e+00	-3.012564e-01
7.438292990595064e-09	4.171944e+00	3.755190e+00	-2.903133e-01
7.472631231753914e-09	4.178138e+00	3.750913e+00	-2.783417e-01
7.511696537640965e-09	4.176630e+00	3.743422e+00	-2.644089e-01
7.547360936213660e-09	4.168478e+00	3.732500e+00	-2.513472e-01
7.594590164932700e-09	4.154729e+00	3.716838e+00	-2.336184e-01
7.639144338973241e-09	4.142730e+00	3.697222e+00	-2.165735e-01
7.679834238114557e-09	4.131261e+00	3.672205e+00	-2.008282e-01
7.728411962768810e-09	4.118273e+00	3.643323e+00	-1.818817e-01
7.778349078083184e-09	4.113183e+00	3.624144e+00	-1.623514e-01
7.828334198879675e-09	4.119298e+00	3.622503e+00	-1.428915e-01
7.876278829817308e-09	4.127949e+00	3.628112e+00	-1.243728e-01
7.926326250967264e-09	4.123411e+00	3.617897e+00	-1.051890e-01
7.972124680450425e-09	4.103189e+00	3.590878e+00	-8.784305e-02
8.015612409834565e-09	4.080124e+00	3.564271e+00	-7.177941e-02
8.048911820239736e-09	4.066413e+00	3.551490e+00	-5.989317e-02
8.087672803191123e-09	4.056891e+00	3.545217e+00	-4.657172e-02
8.125987646359588e-09	4.051124e+00	3.541468e+00	-3.390938e-02
8.163085834908518e-09	4.043816e+00	3.533208e+00	-2.209953e-02
8.205044265741305e-09	4.030231e+00	3.515229e+00	-9.331358e-03
8.250776275024724e-09	4.009746e+00	3.490047e+00	3.758478e-03
8.290927754525837e-09	3.987702e+00	3.470191e+00	1.451194e-02
8.343283393627905e-09	3.954534e+00	3.452544e+00	2.767827e-02
8.397921415305958e-09	3.922276e+00	3.440482e+00	4.072220e-02
8.466927672638163e-09	3.897931e+00	3.429675e+00	5.650984e-02
8.519457801885097e-09	3.887895e+00	3.423225e+00	6.799179e-02
8.570899468692763e-09	3.868226e+00	3.412240e+00	7.874135e-02
8.625204843590076e-09	3.827372e+00	3.386858e+00	8.965798e-02
8.676315666945147e-09	3.783600e+00	3.354634e+00	9.965096e-02
8.724982363325774e-09	3.754166e+00	3.331781e+00	1.090574e-01
8.771866134109689e-09	3.737325e+00	3.324623e+00	1.182359e-01
8.822781602963638e-09	3.718544e+00	3.325528e+00	1.285063e-01
8.870581064184265e-09	3.692938e+00	3.322572e+00	1.383322e-01
8.922514899482622e-09	3.660464e+00	3.310145e+00	1.488891e-01
8.974651785543304e-09	3.632560e+00	3.292242e+00	1.591646e-01
9.029518432580035e-09	3.611496e+00	3.273473e+00	1.696928e-01
9.076680171266321e-09	3.592074e+00	3.256967e+00	1.786856e-01
9.132592291698889e-09	3.573480e+00	3.250840e+00	1.894296e-01
9.190746944551814e-09	3.557401e+00	3.257450e+00	2.003685e-01
9.245041841115741e-09	3.530044e+00	3.250688e+00	2.097728e-01
9.307474085206011e-09	3.487496e+00	3.219966e+00	2.192128e-01
9.366143764360777e-09	3.451090e+00	3.187418e+00	2.269199e-01
9.417442709163492e-09	3.434079e+00	3.175655e+00	2.331254e-01
9.467458048441353e-09	3.428205e+00	3.177905e+00	2.390572e-01
9.512508526311458e-09	3.421824e+00	3.178617e+00	2.443908e-01
9.561273075292141e-09	3.405775e+00	3.168522e+00	2.500245e-01
9.596368886739079e-09	3.386176e+00	3.152719e+00	2.539217e-01
9.635200681714820e-09	3.364987e+00	3.137390e+00	2.581321e-01
9.675708964842271e-09	3.348114e+00	3.130490e+00	2.625068e-01
9.714420830135780e-09	3.332959e+00	3.126899e+00	2.666926e-01
9.759253904792702e-09	3.319348e+00	3.119180e+00	2.715263e-01
9.808040262258747e-09	3.313008e+00	3.115133e+00	2.767237e-01
9.855912374247167e-09	3.308477e+00	3.108365e+00	2.816367e-01
9.893304390571078e-09	3.298662e+00	3.093885e+00	2.853104e-01
9.930874158352140e-09	3.280206e+00	3.078822e+00	2.889660e-01
9.971151769724744e-09	3.257476e+00	3.066630e+00	2.929918e-01
1.001581292348960e-08	3.237530e+00	3.060819e+00	2.975847e-01
1.007107750181047e-08	3.225173e+00	3.062017e+00	3.031696e-01
1.011096450628155e-08	3.225595e+00	3.068097e+00	3.069185e-01
1.014873269104997e-08	3.226887e+00	3.073866e+00	3.100834e-01
1.018897491315928e-08	3.221812e+00	3.074364e+00	3.129087e-01
1.022043332312653e-08	3.208745e+00	3.066364e+00	3.146707e-01
1.025362049323225e-08	3.191825e+00	3.053763e+00	3.161223e-01
1.028812996050042e-08	3.177638e+00	3.042120e+00	3.172525e-01
1.031898272207601e-08	3.167449e+00	3.034226e+00	3.179704e-01
1.035894860554312e-08	3.157794e+00	3.029205e+00	3.184761e-01
1.040160370812042e-08	3.148123e+00	3.027505e+00	3.184288e-01
1.044264366884253e-08	3.137555e+00	3.027745e+00	3.177679e-01
1.048191440208006e-08	3.127239e+00	3.030110e+00	3.165628e-01
1.051987522828808e-08	3.113933e+00	3.032280e+00	3.148769e-01
1.056287134473323e-08	3.093703e+00	3.029798e+00	3.124235e-01
1.060276904452706e-08	3.075439e+00	3.020221e+00	3.097877e-01
1.063692994107345e-08	3.063341e+00	3.008952e+00	3.074102e-01
1.067316476461420e-08	3.055270e+00	3.001067e+00	3.048844e-01
1.071735566022492e-08	3.049917e+00	2.999473e+00	3.018332e-01
1.075786490395159e-08	3.046841e+00	3.005022e+00	2.990157e-01
1.079758088763394e-08	3.042381e+00	3.014169e+00	2.961580e-01
1.082979728212545e-08	3.035150e+00	3.020355e+00	2.937252e-01
1.085986419787344e-08	3.023906e+00	3.021831e+00	2.913407e-01
1.089630164634941e-08	3.005439e+00	3.014850e+00	2.883305e-01
1.093172418852892e-08	2.987156e+00	3.003936e+00	2.853688e-01
1.095667114333744e-08	2.976664e+00	2.998158e+00	2.833250e-01
1.098512002172961e-08	2.968313e+00	2.995288e+00	2.810811e-01
1.101556457413359e-08	2.963371e+00	2.998380e+00	2.787777e-01
1.104454012653900e-08	2.961352e+00	3.003738e+00	2.766389e-01
1.107247780428015e-08	2.960772e+00	3.008051e+00	2.745860e-01
1.110200103078757e-08	2.959670e+00	3.013999e+00	2.724016e-01
1.112493983507356e-08	2.959109e+00	3.017516e+00	2.706790e-01
1.114618812580778e-08	2.959197e+00	3.019129e+00	2.690521e-01
1.116870753372997e-08	2.957911e+00	3.021741e+00	2.672874e-01
1.118743759933010e-08	2.955651e+00	3.021628e+00	2.657823e-01
1.120582754815091e-08	2.952717e+00	3.019795e+00	2.642717e-01
1.122618092358218e-08	2.948703e+00	3.019965e+00	2.625670e-01
1.124642193412859e-08	2.943118e+00	3.019696e+00	2.608368e-01
1.125913301269230e-08	2.938373e+00	3.018391e+00	2.597297e-01
1.127419292947062e-08	2.932646e+00	3.017343e+00	2.583946e-01
1.129482623391055e-08	2.926149e+00	3.018230e+00	2.565175e-01
1.131400331361775e-08	2.921014e+00	3.020031e+00	2.547115e-01
1.133335134316187e-08	2.916536e+00	3.022403e+00	2.528141e-01
1.135108511881599e-08	2.914095e+00	3.025212e+00	2.509971e-01
1.136784039641221e-08	2.912793e+00	3.028076e+00	2.492054e-01
1.138252187503075e-08	2.912805e+00	3.030571e+00	2.475739e-01
1.139379542214931e-08	2.913757e+00	3.032255e+00	2.462833e-01
1.140721743280266e-08	2.914433e+00	3.034356e+00	2.447068e-01
1.141796157259188e-08	2.914369e+00	3.036137e+00	2.434158e-01
1.142809193045287e-08	2.915167e+00	3.037488e+00	2.421764e-01
1.143842948041063e-08	2.916631e+00	3.038555e+00	2.408909e-01
1.144959855824648e-08	2.917277e+00	3.039790e+00	2.394811e-01
1.147193671391817e-08	2.918827e+00	3.040990e+00	2.366068e-01
1.149569733331172e-08	2.920067e+00	3.040205e+00	2.334863e-01
1.151312452597850e-08	2.918549e+00	3.038009e+00	2.311703e-01
1.152862740672751e-08	2.915666e+00	3.035641e+00	2.291006e-01
1.154720777324066e-08	2.911423e+00	3.034544e+00	2.266163e-01
1.156794269955932e-08	2.904949e+00	3.032422e+00	2.238420e-01
