time	V(far)	V(near)	V(probe)
0.000000000000000e+00	2.345554e-03	2.345554e-03	2.662684e+00
1.000000000000000e-09	2.345554e-03	2.345554e-03	2.662684e+00
1.248610568318580e-09	2.345554e-03	2.345554e-03	2.662684e+00
1.250856815379700e-09	3.603772e-01	3.604042e-01	3.020716e+00
1.252084782460083e-09	6.887624e-01	6.888378e-01	3.349101e+00
1.252879534044718e-09	8.414892e-01	8.416180e-01	3.501828e+00
1.253770689591818e-09	9.730981e-01	9.733113e-01	3.633437e+00
1.255553000686017e-09	1.150196e+00	1.150666e+00	3.810535e+00
1.257350424220381e-09	1.250659e+00	1.251518e+00	3.910997e+00
1.259859523188950e-09	1.322903e+00	1.324545e+00	3.983242e+00
1.262425396949593e-09	1.354730e+00	1.357477e+00	4.015069e+00
1.266195567079885e-09	1.371996e+00	1.376953e+00	4.032335e+00
1.270596344081282e-09	1.376395e+00	1.384840e+00	4.036734e+00
1.277707891475311e-09	1.376530e+00	1.392726e+00	4.036869e+00
1.287736178196566e-09	1.374942e+00	1.406469e+00	4.035281e+00
1.307586937581327e-09	1.371894e+00	1.447564e+00	4.032232e+00
1.326757435784742e-09	1.368697e+00	1.501266e+00	4.029036e+00
1.351872357492821e-09	1.363860e+00	1.583095e+00	4.024199e+00
1.376696716693177e-09	1.357959e+00	1.665960e+00	4.018297e+00
1.405868184426658e-09	1.349146e+00	1.751831e+00	4.009485e+00
1.432451494939831e-09	1.339070e+00	1.811180e+00	3.999409e+00
1.463833447754115e-09	1.324557e+00	1.854074e+00	3.984896e+00
1.467116730195934e-09	1.322876e+00	1.856871e+00	3.983215e+00
1.473683295079570e-09	1.319426e+00	1.861594e+00	3.979764e+00
1.486816424846844e-09	1.312186e+00	1.867856e+00	3.972525e+00
1.500000000000000e-09	1.304488e+00	1.870391e+00	3.964827e+00
1.503955072545947e-09	1.302097e+00	1.870495e+00	3.962435e+00
1.509228502607210e-09	1.298857e+00	1.870271e+00	3.959196e+00
1.519775362729735e-09	1.292203e+00	1.868706e+00	3.952542e+00
1.540869082974786e-09	1.278268e+00	1.862545e+00	3.938607e+00
1.583056523464887e-09	1.248430e+00	1.847551e+00	3.908768e+00
1.622669120047347e-09	1.218662e+00	1.839797e+00	3.879001e+00
1.670478350906731e-09	1.181372e+00	1.847244e+00	3.841710e+00
1.719108622411313e-09	1.142438e+00	1.872022e+00	3.802777e+00
1.788351389750648e-09	1.085702e+00	1.921277e+00	3.746041e+00
1.808661403357446e-09	1.068791e+00	1.936575e+00	3.729130e+00
1.849281430571041e-09	1.034629e+00	1.965172e+00	3.694967e+00
1.855517895091172e-09	1.034626e+00	1.969295e+00	3.528245e+00
1.859373895400440e-09	1.037593e+00	1.971807e+00	3.524973e+00
1.862020622724521e-09	1.039294e+00	1.973514e+00	3.522725e+00
1.863987658424565e-09	1.038640e+00	1.974775e+00	3.682492e+00
1.866014184613700e-09	1.036103e+00	1.976066e+00	3.680769e+00
1.867262659266265e-09	1.034551e+00	1.976858e+00	3.679707e+00
1.868971537382874e-09	1.032442e+00	1.977937e+00	3.678253e+00
1.872389293616091e-09	1.028272e+00	1.980080e+00	3.675342e+00
1.879224806082525e-09	1.020140e+00	1.984307e+00	3.669408e+00
1.887937241732941e-09	1.010415e+00	1.989589e+00	3.659407e+00
1.895976474014996e-09	1.002505e+00	1.994367e+00	3.643956e+00
1.904912597412721e-09	9.954860e-01	1.999586e+00	3.616273e+00
1.914454835702462e-09	9.905821e-01	2.005069e+00	3.572490e+00
1.919918124085501e-09	9.884095e-01	2.008173e+00	3.567791e+00
1.925330684294989e-09	9.858809e-01	2.011228e+00	3.563132e+00
1.931249672609553e-09	9.827264e-01	2.014550e+00	3.558033e+00
1.934787625190748e-09	9.827242e-01	2.016528e+00	3.428334e+00
1.938333553945468e-09	9.844968e-01	2.018506e+00	3.425276e+00
1.941001705817277e-09	9.855353e-01	2.019992e+00	3.422974e+00
1.944302017779192e-09	9.864879e-01	2.021828e+00	3.420126e+00
1.950902641703022e-09	9.873713e-01	2.025496e+00	3.414428e+00
1.955364517391653e-09	9.906880e-01	2.027973e+00	3.220029e+00
1.959873086835792e-09	9.966199e-01	2.030478e+00	3.216134e+00
1.963711758022045e-09	1.000723e+00	2.032611e+00	3.212817e+00
1.968341134939661e-09	1.004598e+00	2.035188e+00	3.208817e+00
1.973325990005191e-09	1.012285e+00	2.037969e+00	2.949865e+00
1.977990394196969e-09	1.022456e+00	2.040578e+00	2.941188e+00
1.982663571395492e-09	1.030860e+00	2.043199e+00	2.937149e+00
1.988121828674443e-09	1.038494e+00	2.046273e+00	2.932431e+00
1.999038343232346e-09	1.047612e+00	2.052464e+00	2.923000e+00
2.006381060601888e-09	1.058456e+00	2.056664e+00	2.563572e+00
2.014447925334953e-09	1.075139e+00	2.061317e+00	2.556610e+00
2.021053721304916e-09	1.084182e+00	2.065157e+00	2.550914e+00
2.029185345388988e-09	1.090416e+00	2.069923e+00	2.543907e+00
2.037125268443274e-09	1.101066e+00	2.074619e+00	2.173007e+00
2.045621085831194e-09	1.116174e+00	2.079690e+00	2.165706e+00
2.055600922452057e-09	1.132328e+00	2.085707e+00	1.898947e+00
2.068038089520154e-09	1.149780e+00	2.093291e+00	1.840352e+00
2.085643013717510e-09	1.161041e+00	2.104176e+00	1.635905e+00
2.106308830193221e-09	1.157949e+00	2.117145e+00	1.538386e+00
2.129751594849890e-09	1.134894e+00	2.132050e+00	1.413008e+00
2.153664733770510e-09	1.100225e+00	2.147400e+00	1.324212e+00
2.179625117188067e-09	1.058314e+00	2.164157e+00	1.262566e+00
2.213976217345333e-09	1.009832e+00	2.186375e+00	1.223981e+00
2.250735174855196e-09	9.795109e-01	2.210126e+00	1.218284e+00
2.282089170482021e-09	9.689416e-01	2.230332e+00	1.193951e+00
2.317408559638598e-09	9.879760e-01	2.253030e+00	1.248344e+00
2.359119355563714e-09	1.048892e+00	2.279759e+00	1.277061e+00
2.388535694134063e-09	1.084503e+00	2.298559e+00	1.255987e+00
2.421676271146450e-09	1.132856e+00	2.319674e+00	1.320070e+00
2.455973054058991e-09	1.197331e+00	2.341420e+00	1.342924e+00
2.493052862917147e-09	1.250406e+00	2.370813e+00	1.367394e+00
2.532662984288510e-09	1.291618e+00	2.395401e+00	1.393906e+00
2.590950798801747e-09	1.335847e+00	2.413254e+00	1.434609e+00
2.648507764960689e-09	1.374413e+00	2.458269e+00	1.477291e+00
2.725299795066821e-09	1.434734e+00	2.534139e+00	1.536947e+00
2.796512533513176e-09	1.503334e+00	2.538974e+00	1.594315e+00
2.860624802497079e-09	1.574008e+00	2.508632e+00	1.648581e+00
2.933629343672293e-09	1.660142e+00	2.547567e+00	1.712853e+00
3.004811964983477e-09	1.743326e+00	2.687912e+00	1.773071e+00
3.083105125968427e-09	1.826638e+00	2.822563e+00	1.829464e+00
3.154838326099721e-09	1.896888e+00	2.843310e+00	1.870507e+00
3.226811527849918e-09	1.953834e+00	2.808307e+00	1.904783e+00
3.308846970974490e-09	2.021581e+00	2.793501e+00	1.940379e+00
3.395475688272422e-09	2.106039e+00	2.856687e+00	1.976249e+00
3.498473773801966e-09	2.151031e+00	2.973663e+00	2.015302e+00
3.555392359351357e-09	2.200133e+00	3.041947e+00	2.064822e+00
3.606389504014210e-09	2.260917e+00	3.072637e+00	2.046091e+00
3.641494554533625e-09	2.297132e+00	3.072371e+00	2.053008e+00
3.684358280106946e-09	2.329648e+00	3.067492e+00	2.029503e+00
3.726072798390420e-09	2.376760e+00	3.088256e+00	2.067562e+00
3.775144173336432e-09	2.441866e+00	3.157315e+00	2.091877e+00
3.824043486826659e-09	2.442380e+00	3.208678e+00	2.090257e+00
3.862739635212892e-09	2.424495e+00	3.229581e+00	2.102195e+00
3.904088692651532e-09	2.411111e+00	3.233416e+00	2.080659e+00
3.945959125131840e-09	2.424273e+00	3.245333e+00	2.135957e+00
3.990169534409351e-09	2.453212e+00	3.267354e+00	2.114205e+00
4.030702581321512e-09	2.508590e+00	3.301264e+00	2.179669e+00
4.075413718204892e-09	2.571095e+00	3.342012e+00	2.159101e+00
4.111591879365855e-09	2.581699e+00	3.342820e+00	2.142762e+00
4.152928597115808e-09	2.642219e+00	3.369157e+00	2.246196e+00
4.186534955997773e-09	2.717706e+00	3.405699e+00	2.264253e+00
4.222561265047665e-09	2.743619e+00	3.415770e+00	2.249396e+00
4.254030424772710e-09	2.747747e+00	3.436802e+00	2.299792e+00
4.290507793531218e-09	2.750675e+00	3.477789e+00	2.318923e+00
4.340641597105868e-09	2.742740e+00	3.499443e+00	2.345582e+00
4.397170782706044e-09	2.771393e+00	3.512489e+00	2.376944e+00
4.445493290895845e-09	2.831939e+00	3.529399e+00	2.405045e+00
4.499914335786253e-09	2.895191e+00	3.531902e+00	2.437561e+00
4.548467406999053e-09	2.931494e+00	3.527262e+00	2.466824e+00
4.600180961750006e-09	2.965520e+00	3.547992e+00	2.498099e+00
4.638469116982043e-09	2.999423e+00	3.583642e+00	2.521322e+00
4.693208005595029e-09	3.063876e+00	3.649422e+00	2.554513e+00
4.743300793140289e-09	3.118643e+00	3.699634e+00	2.584670e+00
4.793769197815481e-09	3.163376e+00	3.697789e+00	2.614935e+00
4.844780562378914e-09	3.214355e+00	3.699087e+00	2.645573e+00
4.903223854536630e-09	3.273023e+00	3.708395e+00	2.680178e+00
4.967718285671775e-09	3.332899e+00	3.681831e+00	2.717250e+00
5.026171185308872e-09	3.376827e+00	3.675099e+00	2.750463e+00
5.065702892415264e-09	3.405392e+00	3.705693e+00	2.789962e+00
5.106978525044229e-09	3.434369e+00	3.751159e+00	2.796037e+00
5.149962753464186e-09	3.456698e+00	3.782007e+00	2.819079e+00
5.191975196632792e-09	3.480257e+00	3.799832e+00	2.840400e+00
5.241519365270598e-09	3.520230e+00	3.798352e+00	2.864209e+00
5.287791879770912e-09	3.574956e+00	3.789201e+00	2.885425e+00
5.331754095817171e-09	3.633597e+00	3.789418e+00	2.904706e+00
5.372844956793000e-09	3.680781e+00	3.801653e+00	2.921771e+00
5.416777474815097e-09	3.704559e+00	3.802962e+00	2.921349e+00
5.448929842958578e-09	3.705580e+00	3.803367e+00	2.950531e+00
5.476376709078245e-09	3.703233e+00	3.812351e+00	2.960143e+00
5.507616941211021e-09	3.702220e+00	3.812563e+00	2.960476e+00
5.536198780682189e-09	3.711032e+00	3.815457e+00	2.979739e+00
5.569956701050875e-09	3.728922e+00	3.820751e+00	2.980955e+00
5.602584609679484e-09	3.738493e+00	3.824293e+00	2.998968e+00
5.632410463845514e-09	3.745004e+00	3.827625e+00	3.000569e+00
5.664585093807415e-09	3.759753e+00	3.831771e+00	3.014023e+00
5.686835580247012e-09	3.778911e+00	3.840209e+00	3.021262e+00
5.707922203765256e-09	3.801086e+00	3.844202e+00	3.022919e+00
5.732327381096874e-09	3.827775e+00	3.846145e+00	3.027316e+00
5.758103907744069e-09	3.853449e+00	3.845163e+00	3.029095e+00
5.785556446041173e-09	3.876295e+00	3.843743e+00	3.035347e+00
5.817203946749936e-09	3.899163e+00	3.847461e+00	3.039220e+00
5.849330911331325e-09	3.909777e+00	3.845260e+00	3.041545e+00
5.876503325229043e-09	3.909440e+00	3.845966e+00	3.045409e+00
5.906856597509989e-09	3.905708e+00	3.849399e+00	3.047938e+00
5.931285272501932e-09	3.900753e+00	3.855863e+00	3.050589e+00
5.949158055381225e-09	3.896110e+00	3.868105e+00	3.052190e+00
5.969273128046171e-09	3.894213e+00	3.880486e+00	3.054058e+00
5.984126859124906e-09	3.895217e+00	3.884841e+00	3.055510e+00
6.001713887079206e-09	3.899136e+00	3.888920e+00	3.056867e+00
6.020641125312137e-09	3.905579e+00	3.891469e+00	3.058718e+00
6.039910430445138e-09	3.912782e+00	3.893054e+00	3.059779e+00
6.058238362740659e-09	3.919466e+00	3.894124e+00	3.061326e+00
6.078944897464581e-09	3.925556e+00	3.888194e+00	3.062782e+00
6.099868823511838e-09	3.931123e+00	3.877064e+00	3.064583e+00
6.116032154146263e-09	3.936977e+00	3.867004e+00	3.065197e+00
6.131137146109118e-09	3.942989e+00	3.857232e+00	3.066015e+00
6.145104020861584e-09	3.947582e+00	3.848299e+00	3.066976e+00
6.158605251053366e-09	3.951499e+00	3.840414e+00	3.068002e+00
6.168954990834138e-09	3.953806e+00	3.835295e+00	3.068358e+00
6.181125937985118e-09	3.955878e+00	3.830369e+00	3.069256e+00
6.190772508873329e-09	3.958035e+00	3.829521e+00	3.069399e+00
6.199686350482223e-09	3.960394e+00	3.831086e+00	3.070078e+00
6.208156425996165e-09	3.962506e+00	3.832328e+00	3.070714e+00
6.221178481347602e-09	3.965506e+00	3.833869e+00	3.071705e+00
6.236044806780175e-09	3.967741e+00	3.839428e+00	3.072070e+00
6.251839253252053e-09	3.969179e+00	3.848055e+00	3.073338e+00
6.267560433628856e-09	3.971045e+00	3.854677e+00	3.073776e+00
6.283939258342512e-09	3.973308e+00	3.859458e+00	3.075238e+00
6.295994278274151e-09	3.974468e+00	3.862575e+00	3.075385e+00
6.303392291023717e-09	3.974920e+00	3.864620e+00	3.076124e+00
6.312494195476940e-09	3.975991e+00	3.866243e+00	3.076396e+00
6.315153210923376e-09	3.976432e+00	3.866554e+00	3.076682e+00
6.318205318524344e-09	3.976938e+00	3.866802e+00	3.077016e+00
6.322028435171765e-09	3.977570e+00	3.866956e+00	3.077443e+00
6.327891203852500e-09	3.978536e+00	3.866877e+00	3.078114e+00
6.330244465736076e-09	3.978988e+00	3.867471e+00	3.077363e+00
6.331898751495697e-09	3.979348e+00	3.868353e+00	3.077557e+00
6.334476668949857e-09	3.979903e+00	3.869617e+00	3.077878e+00
6.337084823818263e-09	3.980457e+00	3.870761e+00	3.078194e+00
6.342301133555073e-09	3.981537e+00	3.872676e+00	3.078839e+00
6.347885694404395e-09	3.982659e+00	3.874195e+00	3.079547e+00
6.356503123304265e-09	3.984324e+00	3.875543e+00	3.080675e+00
6.365948392413600e-09	3.985536e+00	3.877674e+00	3.080296e+00
6.375579914872872e-09	3.986272e+00	3.880296e+00	3.081651e+00
6.385313947455816e-09	3.986923e+00	3.883873e+00	3.081929e+00
6.395316617402387e-09	3.987533e+00	3.888233e+00	3.083420e+00
6.404804816741107e-09	3.988313e+00	3.890314e+00	3.084865e+00
6.411880094713108e-09	3.988312e+00	3.891186e+00	3.084291e+00
6.419084347716388e-09	3.987803e+00	3.891605e+00	3.085416e+00
6.427451442390963e-09	3.987572e+00	3.890921e+00	3.086736e+00
6.437560112094911e-09	3.987544e+00	3.890886e+00	3.086232e+00
6.448331248735495e-09	3.987743e+00	3.891616e+00	3.087627e+00
6.459082890349255e-09	3.988366e+00	3.890544e+00	3.089367e+00
6.468426632549532e-09	3.988817e+00	3.888998e+00	3.089032e+00
6.481116398566719e-09	3.989197e+00	3.886265e+00	3.090657e+00
6.493764800502284e-09	3.990080e+00	3.881764e+00	3.092753e+00
6.507873218549240e-09	3.990749e+00	3.875248e+00	3.093173e+00
6.525938221457495e-09	3.991585e+00	3.865579e+00	3.096251e+00
6.545391335735317e-09	3.994140e+00	3.853092e+00	3.096807e+00
6.573363929262861e-09	4.000626e+00	3.834362e+00	3.099585e+00
6.601628570895926e-09	4.011519e+00	3.818223e+00	3.102394e+00
6.625751931916414e-09	4.021105e+00	3.808462e+00	3.104741e+00
6.652836587983829e-09	4.028163e+00	3.805454e+00	3.107276e+00
6.678183362473028e-09	4.031374e+00	3.810284e+00	3.109545e+00
6.705292668887860e-09	4.031120e+00	3.820461e+00	3.111894e+00
6.725033505855904e-09	4.028098e+00	3.828349e+00	3.113593e+00
6.739071358551905e-09	4.023169e+00	3.832999e+00	3.113605e+00
6.756150824977453e-09	4.016446e+00	3.837481e+00	3.116366e+00
6.768666829089883e-09	4.011916e+00	3.840273e+00	3.116933e+00
6.780238062484052e-09	4.007837e+00	3.842329e+00	3.118669e+00
6.792735575862708e-09	4.004308e+00	3.843801e+00	3.119930e+00
6.801618171405219e-09	4.002196e+00	3.844499e+00	3.120854e+00
6.810537299852422e-09	4.000531e+00	3.844502e+00	3.121803e+00
6.822947229515460e-09	3.999397e+00	3.843245e+00	3.123155e+00
6.834375532547175e-09	4.000218e+00	3.841363e+00	3.124430e+00
6.848966201884857e-09	4.003716e+00	3.838531e+00	3.126088e+00
6.864572832941680e-09	4.009411e+00	3.835355e+00	3.127881e+00
6.887240322469104e-09	4.021581e+00	3.829525e+00	3.130477e+00
6.909614375541163e-09	4.036153e+00	3.822087e+00	3.132986e+00
6.930352604635148e-09	4.048346e+00	3.815166e+00	3.135228e+00
6.952971395374574e-09	4.058490e+00	3.807751e+00	3.137558e+00
6.974850274429637e-09	4.065501e+00	3.800952e+00	3.139676e+00
7.002341931381281e-09	4.071313e+00	3.794582e+00	3.142122e+00
7.032198215365634e-09	4.075214e+00	3.789524e+00	3.144449e+00
7.060887205336926e-09	4.075712e+00	3.784781e+00	3.146289e+00
7.085365904468477e-09	4.073177e+00	3.780192e+00	3.147514e+00
7.107958074691625e-09	4.069206e+00	3.775973e+00	3.148359e+00
7.133507591202017e-09	4.062173e+00	3.772316e+00	3.149005e+00
7.162110852435473e-09	4.051744e+00	3.767875e+00	3.149380e+00
7.185727911280444e-09	4.042094e+00	3.763351e+00	3.149448e+00
7.212489258374089e-09	4.031572e+00	3.758261e+00	3.149282e+00
7.241626186475677e-09	4.023086e+00	3.753738e+00	3.148830e+00
7.273213396615197e-09	4.020231e+00	3.751062e+00	3.148040e+00
7.302415060406994e-09	4.025155e+00	3.748552e+00	3.147049e+00
7.333673959927370e-09	4.037908e+00	3.742567e+00	3.145748e+00
7.366861061683375e-09	4.054873e+00	3.733391e+00	3.144153e+00
7.401793329308257e-09	4.068964e+00	3.718832e+00	3.142302e+00
7.434370900749417e-09	4.074507e+00	3.701225e+00	3.140446e+00
7.469874367846235e-09	4.070899e+00	3.683835e+00	3.138274e+00
7.505801417747632e-09	4.059125e+00	3.673774e+00	3.135869e+00
7.541329448629039e-09	4.043829e+00	3.674644e+00	3.133230e+00
7.572416194127642e-09	4.030285e+00	3.681192e+00	3.130670e+00
7.606567839000538e-09	4.017726e+00	3.686060e+00	3.127569e+00
7.641882734125836e-09	4.008959e+00	3.681898e+00	3.124062e+00
7.677153477502392e-09	4.004732e+00	3.668476e+00	3.120255e+00
7.718469586699373e-09	4.002682e+00	3.646066e+00	3.115381e+00
7.760472122047513e-09	4.000605e+00	3.622732e+00	3.109943e+00
7.810240289544588e-09	3.996434e+00	3.600956e+00	3.102966e+00
7.863449908641008e-09	3.989113e+00	3.586981e+00	3.095068e+00
7.921172769988211e-09	3.979976e+00	3.582994e+00	3.086077e+00
7.969426385171210e-09	3.971218e+00	3.587839e+00	3.078138e+00
8.025502144102993e-09	3.954946e+00	3.596951e+00	3.068305e+00
8.082129865798920e-09	3.930769e+00	3.593546e+00	3.057739e+00
8.126692159892189e-09	3.911586e+00	3.573330e+00	3.048913e+00
8.182457230820105e-09	3.899774e+00	3.534676e+00	3.036966e+00
8.239786924950766e-09	3.898838e+00	3.499804e+00	3.023494e+00
8.300509795527362e-09	3.886639e+00	3.484458e+00	3.008308e+00
8.355189462909119e-09	3.856233e+00	3.487541e+00	2.994530e+00
8.401225084082910e-09	3.825599e+00	3.492414e+00	2.983228e+00
8.453568697199020e-09	3.798017e+00	3.489118e+00	2.970785e+00
8.502539660398886e-09	3.782605e+00	3.475649e+00	2.959467e+00
8.545238549582668e-09	3.775023e+00	3.457664e+00	2.947270e+00
8.590670684428211e-09	3.770555e+00	3.438807e+00	2.939668e+00
8.637914437191678e-09	3.766523e+00	3.424110e+00	2.929292e+00
8.680501542766884e-09	3.758787e+00	3.413656e+00	2.920144e+00
8.721720745053124e-09	3.744461e+00	3.404441e+00	2.911525e+00
8.766354591588521e-09	3.719218e+00	3.393903e+00	2.902517e+00
8.815406244919324e-09	3.683844e+00	3.383405e+00	2.893055e+00
8.869446193297936e-09	3.649623e+00	3.378123e+00	2.883206e+00
8.911965623890304e-09	3.632724e+00	3.375958e+00	2.866642e+00
8.956672916972177e-09	3.629929e+00	3.372045e+00	2.868765e+00
8.994460263793478e-09	3.636583e+00	3.364073e+00	2.863057e+00
9.036226086749093e-09	3.641794e+00	3.347116e+00	2.856919e+00
9.083799166279403e-09	3.637519e+00	3.326916e+00	2.849859e+00
9.122938571685467e-09	3.622601e+00	3.315987e+00	2.841351e+00
9.164284836924510e-09	3.600530e+00	3.313118e+00	2.837312e+00
9.204669957580173e-09	3.578132e+00	3.315351e+00	2.830673e+00
9.251622415412651e-09	3.554434e+00	3.315596e+00	2.822592e+00
9.302903799100833e-09	3.536054e+00	3.308514e+00	2.813315e+00
9.349761074893122e-09	3.524775e+00	3.294597e+00	2.804534e+00
9.399791398550617e-09	3.514057e+00	3.274628e+00	2.795014e+00
9.453391210460565e-09	3.501535e+00	3.252041e+00	2.784782e+00
9.504629270695913e-09	3.489773e+00	3.234748e+00	2.774965e+00
9.552939165849580e-09	3.479570e+00	3.227937e+00	2.765666e+00
9.605422693924653e-09	3.466205e+00	3.230827e+00	2.755625e+00
9.652582340221141e-09	3.448816e+00	3.238185e+00	2.746773e+00
9.702679842714184e-09	3.424948e+00	3.240751e+00	2.737506e+00
9.753260687464017e-09	3.402574e+00	3.228445e+00	2.728162e+00
9.795226961313862e-09	3.391453e+00	3.206958e+00	2.720425e+00
9.852291810255736e-09	3.386454e+00	3.176983e+00	2.710209e+00
9.904339454932220e-09	3.382696e+00	3.162308e+00	2.701423e+00
9.941923759149336e-09	3.375212e+00	3.161405e+00	2.695439e+00
9.975748306318679e-09	3.364296e+00	3.166185e+00	2.690265e+00
1.001532079614990e-08	3.353782e+00	3.176261e+00	2.694280e+00
1.005657686714846e-08	3.336762e+00	3.182092e+00	2.678210e+00
1.009524523408537e-08	3.314470e+00	3.178683e+00	2.672310e+00
1.013945305776345e-08	3.297593e+00	3.170125e+00	2.665379e+00
1.018253303730657e-08	3.289423e+00	3.160275e+00	2.658432e+00
1.022913236002667e-08	3.288128e+00	3.156006e+00	2.660925e+00
1.027281039401307e-08	3.289322e+00	3.150757e+00	2.643179e+00
1.031521965474694e-08	3.287408e+00	3.140225e+00	2.635691e+00
1.035987913519956e-08	3.277924e+00	3.131511e+00	2.627732e+00
1.040145381291531e-08	3.259949e+00	3.125681e+00	2.620353e+00
1.044026674295434e-08	3.236987e+00	3.123384e+00	2.613546e+00
1.048288741930640e-08	3.211070e+00	3.125263e+00	2.606218e+00
1.051922407776885e-08	3.192923e+00	3.128199e+00	2.596706e+00
1.055758239873681e-08	3.183488e+00	3.130551e+00	2.593853e+00
1.059953474432036e-08	3.183970e+00	3.129252e+00	2.587142e+00
1.063962259249175e-08	3.188359e+00	3.120093e+00	2.580801e+00
