time	V(far)	V(near)	V(probe)
0.000000000000000e+00	2.345554e-03	2.345554e-03	2.662684e+00
1.000000000000000e-09	2.345554e-03	2.345554e-03	2.662684e+00
1.248610568318585e-09	2.345554e-03	2.345554e-03	2.662684e+00
1.250856815379707e-09	1.775414e-01	1.775722e-01	2.837880e+00
1.252057678309177e-09	3.481268e-01	3.482121e-01	3.008465e+00
1.252936855640910e-09	4.532115e-01	4.533675e-01	3.113550e+00
1.253890732524829e-09	5.513768e-01	5.516466e-01	3.211715e+00
1.255798486292668e-09	7.079594e-01	7.085979e-01	3.368298e+00
1.258501013458981e-09	8.612283e-01	8.627714e-01	3.521567e+00
1.261959196524396e-09	9.801570e-01	9.836288e-01	3.640496e+00
1.265781633760633e-09	1.051688e+00	1.058432e+00	3.712027e+00
1.270516615072767e-09	1.095113e+00	1.107726e+00	3.755451e+00
1.276184279995589e-09	1.116153e+00	1.138585e+00	3.776492e+00
1.283730249075822e-09	1.124295e+00	1.164644e+00	3.784633e+00
1.293660263803963e-09	1.124738e+00	1.196992e+00	3.785076e+00
1.308644002322476e-09	1.121541e+00	1.258406e+00	3.781880e+00
1.330537892299777e-09	1.115967e+00	1.375454e+00	3.776306e+00
1.352547153495207e-09	1.109598e+00	1.513495e+00	3.769937e+00
1.379992024689644e-09	1.099698e+00	1.689033e+00	3.760036e+00
1.409962236540540e-09	1.085561e+00	1.857337e+00	3.745900e+00
1.448742590100696e-09	1.061162e+00	2.007639e+00	3.721501e+00
1.461198273012202e-09	1.051809e+00	2.037534e+00	3.712148e+00
1.475088634176989e-09	1.040539e+00	2.060635e+00	3.700877e+00
1.500000000000000e-09	1.018315e+00	2.079325e+00	3.678654e+00
1.502491136582301e-09	1.015947e+00	2.079633e+00	3.676286e+00
1.507473409746904e-09	1.011168e+00	2.079842e+00	3.671507e+00
1.517437956076108e-09	1.001363e+00	2.078049e+00	3.661701e+00
1.537367048734517e-09	9.808860e-01	2.067985e+00	3.641225e+00
1.577225234051336e-09	9.373724e-01	2.038254e+00	3.597711e+00
1.637024319325642e-09	8.685692e-01	2.012377e+00	3.528908e+00
1.693439633954363e-09	8.023842e-01	2.033183e+00	3.462723e+00
1.766619624520001e-09	7.169251e-01	2.110184e+00	3.377264e+00
1.846661619424422e-09	6.245438e-01	2.207878e+00	3.284882e+00
1.871002233324984e-09	5.967092e-01	2.234158e+00	3.257048e+00
1.882583426655631e-09	5.836751e-01	2.245688e+00	3.243563e+00
1.886983798485979e-09	5.789111e-01	2.249918e+00	3.237647e+00
1.889710454311896e-09	5.762748e-01	2.252500e+00	3.230472e+00
1.892133468106141e-09	5.740536e-01	2.254770e+00	3.229263e+00
1.894703761557845e-09	5.715865e-01	2.257154e+00	3.226349e+00
1.897655283632600e-09	5.690079e-01	2.259862e+00	3.217820e+00
1.900876748653034e-09	5.664455e-01	2.262783e+00	3.214175e+00
1.905594689244335e-09	5.634888e-01	2.266999e+00	3.195599e+00
1.910118108915802e-09	5.619785e-01	2.270978e+00	3.179477e+00
1.914026511361787e-09	5.609396e-01	2.274368e+00	3.175075e+00
1.918374806442055e-09	5.594028e-01	2.278093e+00	3.170184e+00
1.921585768160074e-09	5.595915e-01	2.280814e+00	3.126095e+00
1.925005393594460e-09	5.611166e-01	2.283687e+00	3.122259e+00
1.927996520112227e-09	5.620691e-01	2.286180e+00	3.118909e+00
1.931534842970334e-09	5.627609e-01	2.289107e+00	3.114952e+00
1.934839457447747e-09	5.654504e-01	2.291821e+00	3.042045e+00
1.938230208263759e-09	5.701423e-01	2.294589e+00	3.038264e+00
1.941516482705451e-09	5.739743e-01	2.297256e+00	3.034605e+00
1.945340750204846e-09	5.775971e-01	2.300343e+00	3.030355e+00
1.952989285203634e-09	5.823768e-01	2.306476e+00	3.021879e+00
1.957643546503970e-09	5.912022e-01	2.310186e+00	2.848722e+00
1.962507309383349e-09	6.062266e-01	2.314052e+00	2.843364e+00
1.966369848011517e-09	6.162348e-01	2.317116e+00	2.839118e+00
1.971125152465342e-09	6.263981e-01	2.320886e+00	2.833905e+00
1.976177271010840e-09	6.441711e-01	2.324891e+00	2.614467e+00
1.980907409038312e-09	6.666790e-01	2.328645e+00	2.606680e+00
1.985603917632872e-09	6.854763e-01	2.332378e+00	2.601577e+00
1.991105235127446e-09	7.032364e-01	2.336764e+00	2.595619e+00
2.002107870116594e-09	7.267506e-01	2.345592e+00	2.583770e+00
2.009506299627428e-09	7.514799e-01	2.351578e+00	2.286892e+00
2.017645971430470e-09	7.877419e-01	2.358218e+00	2.278233e+00
2.024294047490781e-09	8.084434e-01	2.363689e+00	2.271201e+00
2.032491767415673e-09	8.245284e-01	2.370496e+00	2.262580e+00
2.040471214339695e-09	8.487812e-01	2.377186e+00	1.957646e+00
2.049024900938395e-09	8.817906e-01	2.384430e+00	1.948773e+00
2.057087026553598e-09	9.005587e-01	2.391323e+00	1.940470e+00
2.066652377092975e-09	9.099568e-01	2.399578e+00	1.930697e+00
2.076548810398168e-09	9.254446e-01	2.408199e+00	1.640050e+00
2.087384842938746e-09	9.503727e-01	2.417719e+00	1.562222e+00
2.098728202229018e-09	9.676871e-01	2.427758e+00	1.442636e+00
2.112595558507087e-09	9.737204e-01	2.440103e+00	1.414466e+00
2.137273883099551e-09	9.468347e-01	2.462145e+00	1.312414e+00
2.160632023603557e-09	8.972294e-01	2.482955e+00	1.248565e+00
2.185419631549675e-09	8.356071e-01	2.504811e+00	1.207713e+00
2.217518655083645e-09	7.659721e-01	2.532557e+00	1.187816e+00
2.253548328251763e-09	7.161981e-01	2.562785e+00	1.157844e+00
2.291639197842786e-09	7.264598e-01	2.593620e+00	1.228593e+00
2.332917705317498e-09	8.118472e-01	2.625786e+00	1.278487e+00
2.363622115313929e-09	8.830801e-01	2.648932e+00	1.257184e+00
2.397402667593827e-09	9.884461e-01	2.673684e+00	1.364275e+00
2.436027805667871e-09	1.110709e+00	2.701083e+00	1.340702e+00
2.488931392984807e-09	1.272188e+00	2.736967e+00	1.489602e+00
2.564410208572600e-09	1.491471e+00	2.768261e+00	1.594188e+00
2.620352670250878e-09	1.575554e+00	2.813166e+00	1.673409e+00
2.676693879947602e-09	1.646705e+00	2.884977e+00	1.753536e+00
2.738417747421444e-09	1.735777e+00	2.927207e+00	1.840259e+00
2.805304459374687e-09	1.852954e+00	2.881225e+00	1.934058e+00
2.871119569408850e-09	1.984316e+00	2.800945e+00	2.028151e+00
2.939159749592161e-09	2.125380e+00	2.841994e+00	2.124747e+00
3.003428735968385e-09	2.251731e+00	3.036708e+00	2.207708e+00
3.064382465365736e-09	2.357201e+00	3.237569e+00	2.271747e+00
3.128297376775226e-09	2.450221e+00	3.277831e+00	2.321564e+00
3.186486907986652e-09	2.497254e+00	3.147128e+00	2.294353e+00
3.246521226275809e-09	2.567524e+00	3.101839e+00	2.385038e+00
3.294934341726895e-09	2.667368e+00	3.163537e+00	2.414414e+00
3.344218912251369e-09	2.743836e+00	3.189134e+00	2.425289e+00
3.376789792573105e-09	2.770238e+00	3.196020e+00	2.435743e+00
3.418604137944890e-09	2.783755e+00	3.193758e+00	2.419733e+00
3.452351987615828e-09	2.777770e+00	3.212498e+00	2.455471e+00
3.481487958927672e-09	2.761043e+00	3.263436e+00	2.472142e+00
3.507992162649591e-09	2.750944e+00	3.303549e+00	2.466480e+00
3.538627315218963e-09	2.758495e+00	3.317059e+00	2.456481e+00
3.567129182637654e-09	2.788450e+00	3.331883e+00	2.472474e+00
3.602168927519913e-09	2.835590e+00	3.350158e+00	2.461575e+00
3.632220692872230e-09	2.911086e+00	3.367791e+00	2.471504e+00
3.665956630324390e-09	3.002274e+00	3.389477e+00	2.461849e+00
3.696910335740748e-09	3.079539e+00	3.408546e+00	2.465465e+00
3.734381162146534e-09	3.152459e+00	3.428732e+00	2.455524e+00
3.767193679343710e-09	3.151567e+00	3.446131e+00	2.460746e+00
3.804006005638934e-09	3.125115e+00	3.466029e+00	2.451633e+00
3.833504720345286e-09	3.064041e+00	3.480626e+00	2.466120e+00
3.857272128321869e-09	3.006231e+00	3.496318e+00	2.460594e+00
3.874881897119770e-09	2.977206e+00	3.500094e+00	2.476277e+00
3.887274903989578e-09	2.961856e+00	3.500783e+00	2.473513e+00
3.902837261763717e-09	2.952923e+00	3.496752e+00	2.470120e+00
3.913174533843359e-09	2.962637e+00	3.504309e+00	2.502665e+00
3.917702135805353e-09	2.971474e+00	3.511276e+00	2.495393e+00
3.923720479134254e-09	2.982052e+00	3.517845e+00	2.494364e+00
3.928923707010489e-09	2.990910e+00	3.522395e+00	2.493295e+00
3.935809730474557e-09	3.002192e+00	3.526872e+00	2.491891e+00
3.941265631737583e-09	3.010778e+00	3.529260e+00	2.490784e+00
3.947240589397485e-09	3.019831e+00	3.530811e+00	2.489578e+00
3.953828360511794e-09	3.029399e+00	3.531362e+00	2.488254e+00
3.964312479644222e-09	3.043763e+00	3.530113e+00	2.486162e+00
3.976817352513960e-09	3.064984e+00	3.538834e+00	2.518577e+00
4.001827098253437e-09	3.111070e+00	3.572260e+00	2.530712e+00
4.022958196029564e-09	3.139880e+00	3.585244e+00	2.526761e+00
4.046681204178661e-09	3.165112e+00	3.591326e+00	2.552564e+00
4.071450883456829e-09	3.184864e+00	3.590888e+00	2.548428e+00
4.100581367345271e-09	3.210508e+00	3.585594e+00	2.579334e+00
4.127139571506442e-09	3.245712e+00	3.581299e+00	2.592978e+00
4.158969357976095e-09	3.285638e+00	3.572312e+00	2.609647e+00
4.200228486448645e-09	3.311067e+00	3.572437e+00	2.631397e+00
4.240383473672042e-09	3.319694e+00	3.597985e+00	2.652507e+00
4.283323523530875e-09	3.329866e+00	3.645746e+00	2.674980e+00
4.331864006438297e-09	3.344321e+00	3.681548e+00	2.700504e+00
4.383454386320498e-09	3.369833e+00	3.705288e+00	2.728607e+00
4.425132115602020e-09	3.400008e+00	3.696091e+00	2.752714e+00
4.465898580981018e-09	3.432177e+00	3.652161e+00	2.777733e+00
4.511650386873626e-09	3.470669e+00	3.586031e+00	2.806998e+00
4.561530764467900e-09	3.516383e+00	3.541682e+00	2.838954e+00
4.597689102245207e-09	3.546057e+00	3.573834e+00	2.861211e+00
4.625309489961511e-09	3.571388e+00	3.628312e+00	2.877304e+00
4.654486112442175e-09	3.604556e+00	3.691927e+00	2.893404e+00
4.688081740590395e-09	3.636313e+00	3.746438e+00	2.911078e+00
4.733948591908637e-09	3.660276e+00	3.758391e+00	2.934628e+00
4.763165516312730e-09	3.670038e+00	3.737057e+00	2.949676e+00
4.785914706059977e-09	3.677644e+00	3.718675e+00	2.961526e+00
4.814193638218520e-09	3.689414e+00	3.694135e+00	2.969170e+00
4.840503364201947e-09	3.704827e+00	3.674362e+00	2.989679e+00
4.873852501964800e-09	3.733324e+00	3.653918e+00	3.005990e+00
4.906712356794294e-09	3.764225e+00	3.633261e+00	3.015925e+00
4.939812081143456e-09	3.805051e+00	3.619098e+00	3.035117e+00
4.976552487887432e-09	3.854861e+00	3.612050e+00	3.049532e+00
5.015954369027824e-09	3.884920e+00	3.613873e+00	3.063535e+00
5.032253604027680e-09	3.889060e+00	3.618760e+00	3.069256e+00
5.041874985257935e-09	3.889074e+00	3.622923e+00	3.072048e+00
5.053198007127842e-09	3.889796e+00	3.626236e+00	3.075269e+00
5.063504387574855e-09	3.891693e+00	3.627478e+00	3.078185e+00
5.084117148468880e-09	3.895734e+00	3.627042e+00	3.083918e+00
5.102046692081057e-09	3.888096e+00	3.629066e+00	3.087955e+00
5.125377139873178e-09	3.871482e+00	3.632771e+00	3.094213e+00
5.147457654830808e-09	3.855135e+00	3.634215e+00	3.096636e+00
5.168759436643310e-09	3.840489e+00	3.633777e+00	3.102146e+00
5.180645594845051e-09	3.834210e+00	3.635783e+00	3.095406e+00
5.196071258382378e-09	3.825909e+00	3.639360e+00	3.102169e+00
5.212534091679773e-09	3.825625e+00	3.635994e+00	3.106229e+00
5.229265595914858e-09	3.836594e+00	3.632083e+00	3.103585e+00
5.248140798055718e-09	3.857108e+00	3.627045e+00	3.108023e+00
5.272926153866159e-09	3.900733e+00	3.618039e+00	3.102856e+00
5.295782143986069e-09	3.954158e+00	3.612550e+00	3.101600e+00
5.319218460431192e-09	4.001107e+00	3.610525e+00	3.099875e+00
5.333936355294753e-09	4.021192e+00	3.612127e+00	3.090376e+00
5.346311297671487e-09	4.030879e+00	3.613466e+00	3.092568e+00
5.356327414702131e-09	4.034665e+00	3.612720e+00	3.092339e+00
5.366375851942078e-09	4.036081e+00	3.610431e+00	3.095698e+00
5.378631049418731e-09	4.036255e+00	3.605649e+00	3.098099e+00
5.395960748871691e-09	4.026926e+00	3.597581e+00	3.092840e+00
5.407845946550000e-09	4.012613e+00	3.592334e+00	3.089575e+00
5.416394315049781e-09	4.001244e+00	3.588574e+00	3.090838e+00
5.427090930133045e-09	3.989106e+00	3.583315e+00	3.092876e+00
5.448484160299574e-09	3.963441e+00	3.573162e+00	3.087516e+00
5.490867609031621e-09	3.913441e+00	3.559309e+00	3.082252e+00
5.515681013075849e-09	3.893396e+00	3.556416e+00	3.078419e+00
5.539350590140386e-09	3.881032e+00	3.558661e+00	3.074142e+00
5.565219817615922e-09	3.874140e+00	3.560271e+00	3.068768e+00
5.591333233656559e-09	3.877614e+00	3.556087e+00	3.073106e+00
5.626588533502194e-09	3.887610e+00	3.563080e+00	3.053754e+00
5.667248066716293e-09	3.899465e+00	3.579579e+00	3.042593e+00
5.711728057994869e-09	3.914460e+00	3.570023e+00	3.029691e+00
5.760047951336176e-09	3.919886e+00	3.539686e+00	3.014939e+00
5.800321748277534e-09	3.912379e+00	3.515568e+00	3.002047e+00
5.843331604422225e-09	3.895966e+00	3.496151e+00	2.987766e+00
5.883077607246744e-09	3.874387e+00	3.494895e+00	2.974422e+00
5.932645562378960e-09	3.841465e+00	3.526874e+00	2.958471e+00
5.985500509950873e-09	3.815680e+00	3.577995e+00	2.943382e+00
6.022839980972313e-09	3.802485e+00	3.593495e+00	2.934196e+00
6.053279744227136e-09	3.789193e+00	3.570851e+00	2.927376e+00
6.089150065995964e-09	3.772051e+00	3.518673e+00	2.919479e+00
6.130663429078921e-09	3.754180e+00	3.457695e+00	2.909817e+00
6.167467553707992e-09	3.743756e+00	3.421759e+00	2.900577e+00
6.201688940133950e-09	3.738417e+00	3.415699e+00	2.891726e+00
6.239550400140119e-09	3.731761e+00	3.434679e+00	2.882430e+00
6.283201203587101e-09	3.724875e+00	3.473641e+00	2.873347e+00
6.320516595465583e-09	3.720243e+00	3.502425e+00	2.867280e+00
6.362810667775186e-09	3.704148e+00	3.516018e+00	2.861963e+00
6.402679966447531e-09	3.675897e+00	3.509398e+00	2.857816e+00
6.440719719698521e-09	3.647062e+00	3.487577e+00	2.854103e+00
6.465755561053413e-09	3.630226e+00	3.465539e+00	2.847181e+00
6.490562599648180e-09	3.619125e+00	3.443703e+00	2.849283e+00
6.517909690445297e-09	3.615729e+00	3.425327e+00	2.846726e+00
6.554348121214808e-09	3.624540e+00	3.403755e+00	2.841217e+00
6.594543323636709e-09	3.643970e+00	3.388061e+00	2.840705e+00
6.620602005181669e-09	3.656057e+00	3.384454e+00	2.839170e+00
6.647495189995392e-09	3.663361e+00	3.385020e+00	2.835883e+00
6.677603357517740e-09	3.657546e+00	3.390274e+00	2.836526e+00
6.701709371607754e-09	3.639023e+00	3.395191e+00	2.835489e+00
6.723060040978998e-09	3.612679e+00	3.397999e+00	2.834550e+00
6.747636366057171e-09	3.586469e+00	3.400838e+00	2.838845e+00
6.765291377385329e-09	3.566025e+00	3.400643e+00	2.832455e+00
6.781853156442936e-09	3.545319e+00	3.398469e+00	2.835395e+00
6.792066874626798e-09	3.534172e+00	3.396527e+00	2.828958e+00
6.799677674110348e-09	3.525759e+00	3.394568e+00	2.830516e+00
6.809486278341489e-09	3.518333e+00	3.392563e+00	2.832236e+00
6.822671396197909e-09	3.513223e+00	3.390626e+00	2.834527e+00
6.836903721009233e-09	3.512125e+00	3.388480e+00	2.828416e+00
6.849719393527522e-09	3.513986e+00	3.386491e+00	2.830585e+00
6.863058325574834e-09	3.518232e+00	3.385155e+00	2.832814e+00
6.874108898404011e-09	3.525278e+00	3.383997e+00	2.826638e+00
6.885441857109222e-09	3.534925e+00	3.382711e+00	2.828494e+00
6.896728379245183e-09	3.543687e+00	3.381854e+00	2.830329e+00
6.911055780508546e-09	3.557872e+00	3.379259e+00	2.825453e+00
6.926678855430422e-09	3.574657e+00	3.375274e+00	2.827965e+00
6.947428840163733e-09	3.594190e+00	3.370356e+00	2.824857e+00
6.970907569377641e-09	3.610680e+00	3.365804e+00	2.828580e+00
6.998610848606322e-09	3.617359e+00	3.360586e+00	2.824170e+00
7.028359704537285e-09	3.611201e+00	3.351271e+00	2.823323e+00
7.061028718846813e-09	3.595684e+00	3.343780e+00	2.827879e+00
7.087676224688339e-09	3.571944e+00	3.333911e+00	2.819275e+00
7.107760105169407e-09	3.546130e+00	3.321313e+00	2.817119e+00
7.131341484343548e-09	3.518294e+00	3.308897e+00	2.814177e+00
7.156475577226520e-09	3.494997e+00	3.301291e+00	2.810737e+00
7.183273684835017e-09	3.478835e+00	3.299901e+00	2.806920e+00
7.211082650524055e-09	3.473675e+00	3.304299e+00	2.810056e+00
7.241544392834530e-09	3.473983e+00	3.314839e+00	2.798754e+00
7.277857461586096e-09	3.477218e+00	3.328316e+00	2.793809e+00
7.303636830577090e-09	3.484412e+00	3.333541e+00	2.790267e+00
7.328446485382799e-09	3.492445e+00	3.332338e+00	2.786687e+00
7.357986167015569e-09	3.499698e+00	3.318786e+00	2.782005e+00
7.392834157755416e-09	3.501765e+00	3.292491e+00	2.775712e+00
7.436065554758894e-09	3.491514e+00	3.253125e+00	2.766870e+00
7.477330257218441e-09	3.472544e+00	3.226349e+00	2.758018e+00
7.512275950667223e-09	3.456229e+00	3.230075e+00	2.750906e+00
7.550854237579529e-09	3.440598e+00	3.257409e+00	2.743944e+00
7.584363024681298e-09	3.428462e+00	3.287754e+00	2.738591e+00
7.621979110245534e-09	3.416474e+00	3.312182e+00	2.732772e+00
7.658853982171056e-09	3.405462e+00	3.314541e+00	2.726508e+00
7.702631553131819e-09	3.391831e+00	3.286196e+00	2.717551e+00
7.739040858488527e-09	3.378157e+00	3.247711e+00	2.708808e+00
7.768431033722827e-09	3.365040e+00	3.215329e+00	2.701258e+00
7.801993368424776e-09	3.352777e+00	3.187192e+00	2.692756e+00
7.836425050425160e-09	3.347448e+00	3.177180e+00	2.684763e+00
7.866711965453853e-09	3.348900e+00	3.189101e+00	2.678607e+00
7.900632938792433e-09	3.351560e+00	3.216903e+00	2.679338e+00
7.937899000427554e-09	3.354228e+00	3.248164e+00	2.666622e+00
7.985097778579728e-09	3.347411e+00	3.277636e+00	2.659083e+00
8.011147251025864e-09	3.328358e+00	3.284843e+00	2.650357e+00
8.028878736306954e-09	3.313184e+00	3.285163e+00	2.651681e+00
8.055070047699655e-09	3.299598e+00	3.280626e+00	2.651653e+00
8.071231203584313e-09	3.288856e+00	3.274486e+00	2.644019e+00
8.084816398685767e-09	3.274909e+00	3.265829e+00	2.638664e+00
8.099709003683322e-09	3.261151e+00	3.254979e+00	2.638171e+00
8.116702103806560e-09	3.250914e+00	3.243806e+00	2.635617e+00
8.135093073021941e-09	3.244620e+00	3.233876e+00	2.634726e+00
8.154917678813500e-09	3.244046e+00	3.223852e+00	2.628827e+00
8.182750779624675e-09	3.253299e+00	3.210854e+00	2.624168e+00
8.214420149146668e-09	3.271121e+00	3.203717e+00	2.619131e+00
8.243866635818882e-09	3.282301e+00	3.206129e+00	2.617557e+00
8.275353747935055e-09	3.287090e+00	3.212321e+00	2.609781e+00
8.301903193234286e-09	3.284899e+00	3.216808e+00	2.605688e+00
8.316985387600137e-09	3.275002e+00	3.219348e+00	2.600947e+00
8.325644224576949e-09	3.266259e+00	3.220635e+00	2.599767e+00
8.334573254013363e-09	3.258511e+00	3.222358e+00	2.600572e+00
8.346009982851484e-09	3.251011e+00	3.225071e+00	2.600062e+00
8.359202184665698e-09	3.238731e+00	3.227993e+00	2.595753e+00
8.372516658652194e-09	3.223579e+00	3.230548e+00	2.594767e+00
8.386752431515894e-09	3.210920e+00	3.233260e+00	2.594073e+00
8.406683505872971e-09	3.193035e+00	3.235435e+00	2.590067e+00
8.427993663655183e-09	3.173161e+00	3.234955e+00	2.587572e+00
8.439198649630907e-09	3.165464e+00	3.234288e+00	2.586974e+00
8.447757010761975e-09	3.160790e+00	3.233362e+00	2.585313e+00
8.459362808003899e-09	3.155850e+00	3.231675e+00	2.584700e+00
8.473879044876409e-09	3.153217e+00	3.230128e+00	2.583795e+00
8.488253724948945e-09	3.153446e+00	3.229189e+00	2.583082e+00
8.506507189770666e-09	3.159199e+00	3.228883e+00	2.582468e+00
8.528961393982948e-09	3.174509e+00	3.229980e+00	2.582083e+00
8.554196141196365e-09	3.190387e+00	3.232505e+00	2.581000e+00
8.582919760717455e-09	3.208992e+00	3.233302e+00	2.581721e+00
8.610591742411887e-09	3.227384e+00	3.232783e+00	2.581450e+00
8.630134196886798e-09	3.234064e+00	3.230304e+00	2.581411e+00
8.646959086284515e-09	3.235079e+00	3.227333e+00	2.580589e+00
8.664115852017330e-09	3.231596e+00	3.222790e+00	2.580002e+00
8.677188795426683e-09	3.226177e+00	3.216870e+00	2.579524e+00
8.690318641591547e-09	3.219074e+00	3.212335e+00	2.578974e+00
8.707195391313245e-09	3.208381e+00	3.210438e+00	2.578299e+00
8.731453197845062e-09	3.189477e+00	3.206815e+00	2.577432e+00
8.762443823864899e-09	3.164213e+00	3.199335e+00	2.576728e+00
8.791483705078235e-09	3.145960e+00	3.197103e+00	2.576736e+00
8.807454498005232e-09	3.138540e+00	3.199557e+00	2.577526e+00
8.825038709971345e-09	3.133114e+00	3.205455e+00	2.577701e+00
8.844260017250784e-09	3.131549e+00	3.214654e+00	2.578656e+00
8.859218048532531e-09	3.132629e+00	3.222775e+00	2.578817e+00
8.868540805134205e-09	3.134687e+00	3.228980e+00	2.580647e+00
8.878942604247241e-09	3.138060e+00	3.236825e+00	2.580858e+00
8.888917181078921e-09	3.141369e+00	3.243196e+00	2.580916e+00
8.902297297316086e-09	3.146902e+00	3.249041e+00	2.582453e+00
8.917347181363647e-09	3.153703e+00	3.252467e+00	2.582379e+00
8.934133716861437e-09	3.161153e+00	3.255478e+00	2.584449e+00
8.956385745881462e-09	3.170919e+00	3.255301e+00	2.585631e+00
8.968740890207777e-09	3.175526e+00	3.250468e+00	2.586188e+00
8.978025278652640e-09	3.178653e+00	3.245484e+00	2.586560e+00
8.990407979744460e-09	3.182409e+00	3.239883e+00	2.587002e+00
9.003073257069766e-09	3.185630e+00	3.232746e+00	2.587400e+00
