time	V(probe)	V(n024)
0.000000000000000e+00	1.661415e-04	4.461588e-06
1.000000000000000e-09	1.661415e-04	4.461588e-06
1.248610568318584e-09	1.661415e-04	4.461588e-06
1.250856815379706e-09	1.820548e-01	1.818928e-01
1.252059507192776e-09	3.631049e-01	3.629425e-01
1.252967944330145e-09	4.826446e-01	4.824821e-01
1.253944080779120e-09	5.967118e-01	5.965490e-01
1.255896353677070e-09	7.873114e-01	7.871482e-01
1.258436891524485e-09	9.746895e-01	9.745260e-01
1.261985916169441e-09	1.154076e+00	1.153912e+00
1.266343409385805e-09	1.287712e+00	1.287548e+00
1.271686058608270e-09	1.375789e+00	1.375625e+00
1.277921560115400e-09	1.423531e+00	1.423367e+00
1.285813586835813e-09	1.446216e+00	1.446051e+00
1.295838422247134e-09	1.452345e+00	1.452181e+00
1.309825617959310e-09	1.449441e+00	1.449276e+00
1.326883578974788e-09	1.442378e+00	1.442213e+00
1.347657586582771e-09	1.432656e+00	1.432491e+00
1.373195865339143e-09	1.418723e+00	1.418558e+00
1.406706236156637e-09	1.396029e+00	1.395865e+00
1.437146957468264e-09	1.370467e+00	1.370303e+00
1.465777367942567e-09	1.342024e+00	1.341859e+00
1.500000000000000e-09	1.302899e+00	1.302735e+00
1.503422263205744e-09	1.298678e+00	1.298513e+00
1.510266789617230e-09	1.290143e+00	1.289979e+00
1.523955842440204e-09	1.272550e+00	1.272386e+00
1.551333948086150e-09	1.235506e+00	1.235342e+00
1.606090159378044e-09	1.155539e+00	1.155375e+00
1.667901948517520e-09	1.058241e+00	1.058077e+00
1.745920002431086e-09	9.283054e-01	9.281420e-01
1.829539566235766e-09	7.835298e-01	7.833666e-01
1.866734042561993e-09	7.181253e-01	7.179623e-01
1.871879288878962e-09	7.090679e-01	7.089049e-01
1.874890170220807e-09	7.037684e-01	7.036054e-01
1.877450210123007e-09	6.992629e-01	6.990999e-01
1.880592640043908e-09	6.937335e-01	6.935704e-01
1.883559497221716e-09	6.885141e-01	6.883510e-01
1.887024692250982e-09	6.824197e-01	6.822567e-01
1.890850361407030e-09	6.756940e-01	6.755310e-01
1.894857425220270e-09	6.686527e-01	6.684898e-01
1.899054663267885e-09	6.612815e-01	6.611187e-01
1.903922964383480e-09	6.527380e-01	6.525754e-01
1.909103409094928e-09	6.436554e-01	6.434927e-01
1.913910578716395e-09	6.352355e-01	6.350732e-01
1.918837760773955e-09	6.266155e-01	6.264533e-01
1.927333711499018e-09	6.117772e-01	6.116160e-01
1.935733240259086e-09	5.971436e-01	5.969834e-01
1.942091077703073e-09	5.860944e-01	5.859342e-01
1.949798493870882e-09	5.727339e-01	5.725738e-01
1.955563091660813e-09	5.627645e-01	5.626073e-01
1.961716734233249e-09	5.521521e-01	5.519950e-01
1.969221048527996e-09	5.392461e-01	5.390931e-01
1.979518130434100e-09	5.216177e-01	5.214660e-01
1.988118521332341e-09	5.069672e-01	5.068156e-01
1.998155350002489e-09	4.899595e-01	4.898078e-01
2.006532336794931e-09	4.758348e-01	4.756909e-01
2.016179828606227e-09	4.596703e-01	4.595264e-01
2.027645663370876e-09	4.405870e-01	4.404528e-01
2.042167144369205e-09	4.166558e-01	4.165240e-01
2.062660827511707e-09	3.833441e-01	3.832197e-01
2.083722112869037e-09	3.497269e-01	3.496026e-01
2.106879097600061e-09	3.135182e-01	3.134097e-01
2.128013384939675e-09	2.812290e-01	2.811278e-01
2.155682771695893e-09	2.401115e-01	2.400189e-01
2.185109306867070e-09	1.979040e-01	1.978195e-01
2.209446928972864e-09	1.642467e-01	1.641622e-01
2.238093150182200e-09	1.261312e-01	1.260582e-01
2.265529360361285e-09	9.122194e-02	9.114903e-02
2.295105919394951e-09	5.537220e-02	5.530754e-02
2.322611165916888e-09	2.374522e-02	2.368061e-02
2.345559624011612e-09	-1.365767e-03	-1.430319e-03
2.369815582536889e-09	-2.663323e-02	-2.669773e-02
2.385307500477231e-09	-4.208892e-02	-4.214773e-02
2.401202586946694e-09	-5.738303e-02	-5.744181e-02
2.412404831921477e-09	-6.782255e-02	-6.788130e-02
2.426019751169173e-09	-8.013387e-02	-8.019260e-02
2.450264553416741e-09	-1.010397e-01	-1.010984e-01
2.466404240028467e-09	-1.142374e-01	-1.142969e-01
2.483234354189003e-09	-1.273944e-01	-1.274546e-01
2.497166897094814e-09	-1.378222e-01	-1.378831e-01
2.513811055799599e-09	-1.497327e-01	-1.497945e-01
2.547099373209170e-09	-1.717785e-01	-1.718425e-01
2.580931904335100e-09	-1.917596e-01	-1.918264e-01
2.631484085497879e-09	-2.171913e-01	-2.172630e-01
2.693994016129857e-09	-2.422130e-01	-2.422917e-01
2.786717241753705e-09	-2.674411e-01	-2.675316e-01
2.873206543326534e-09	-2.772683e-01	-2.773707e-01
2.963557026045292e-09	-2.773314e-01	-2.774463e-01
3.057457328371645e-09	-2.786509e-01	-2.787785e-01
3.144115144294847e-09	-2.861553e-01	-2.862940e-01
3.227392350675407e-09	-2.930433e-01	-2.931918e-01
3.322453551902401e-09	-2.924251e-01	-2.925833e-01
3.416089031622111e-09	-2.856030e-01	-2.857695e-01
3.519090875044051e-09	-2.834771e-01	-2.836508e-01
3.569597320536807e-09	-2.880861e-01	-2.882650e-01
3.619946193204870e-09	-2.980002e-01	-2.981792e-01
3.651116637862602e-09	-3.065532e-01	-3.067321e-01
3.687471592567934e-09	-3.175186e-01	-3.177001e-01
3.725301711958460e-09	-3.288493e-01	-3.290308e-01
3.764354911050017e-09	-3.401701e-01	-3.403542e-01
3.801892027148987e-09	-3.514054e-01	-3.515899e-01
3.824217365408375e-09	-3.586546e-01	-3.588390e-01
3.841241319173319e-09	-3.645753e-01	-3.647608e-01
3.863579627246943e-09	-3.728352e-01	-3.730207e-01
3.888840751324228e-09	-3.827738e-01	-3.829593e-01
3.919256875695234e-09	-3.952188e-01	-3.954042e-01
3.949149434888164e-09	-4.073687e-01	-4.075554e-01
3.982627898625715e-09	-4.204420e-01	-4.206287e-01
3.998042015574320e-09	-4.262705e-01	-4.264571e-01
4.009393186273510e-09	-4.304957e-01	-4.306824e-01
4.025919614056487e-09	-4.365051e-01	-4.366918e-01
4.035148997409362e-09	-4.397686e-01	-4.399561e-01
4.040223086495647e-09	-4.415317e-01	-4.417193e-01
4.047090204829896e-09	-4.438874e-01	-4.440750e-01
4.054159171941185e-09	-4.462858e-01	-4.464733e-01
4.063890790574361e-09	-4.495662e-01	-4.497538e-01
4.075887582088273e-09	-4.536086e-01	-4.537961e-01
4.092063391769564e-09	-4.590935e-01	-4.592810e-01
4.112210425042292e-09	-4.659638e-01	-4.661514e-01
4.134486952696671e-09	-4.734661e-01	-4.736536e-01
4.158058970005470e-09	-4.810636e-01	-4.812517e-01
4.169329368823856e-09	-4.845296e-01	-4.847177e-01
4.179585153133154e-09	-4.875947e-01	-4.877829e-01
4.200096721751750e-09	-4.935408e-01	-4.937291e-01
4.219862644786538e-09	-4.991024e-01	-4.992906e-01
4.246165085106948e-09	-5.063480e-01	-5.065362e-01
4.277780534950115e-09	-5.149198e-01	-5.151082e-01
4.306807743274406e-09	-5.226175e-01	-5.228059e-01
4.330129081647073e-09	-5.284775e-01	-5.286661e-01
4.344077710666835e-09	-5.317222e-01	-5.319111e-01
4.356014595905788e-09	-5.342829e-01	-5.344717e-01
4.371771778609916e-09	-5.373045e-01	-5.374933e-01
4.385461536198273e-09	-5.395640e-01	-5.397532e-01
4.388787970977725e-09	-5.400588e-01	-5.402480e-01
4.391402584107894e-09	-5.404326e-01	-5.406217e-01
4.393122022107551e-09	-5.406710e-01	-5.408601e-01
4.395009864334272e-09	-5.409260e-01	-5.411152e-01
4.397368008171893e-09	-5.412349e-01	-5.414240e-01
4.400658266776180e-09	-5.416476e-01	-5.418367e-01
4.404627729073709e-09	-5.421177e-01	-5.423068e-01
4.407604529096793e-09	-5.424502e-01	-5.426393e-01
4.411029419362572e-09	-5.428118e-01	-5.430008e-01
4.415481084325340e-09	-5.432481e-01	-5.434371e-01
4.422121809614519e-09	-5.438284e-01	-5.440175e-01
4.427614113828089e-09	-5.442441e-01	-5.444336e-01
4.432824361998294e-09	-5.445852e-01	-5.447747e-01
4.438149141196797e-09	-5.448794e-01	-5.450689e-01
4.446930080700476e-09	-5.452429e-01	-5.454324e-01
4.456198175226726e-09	-5.454598e-01	-5.456497e-01
4.470153868025944e-09	-5.454676e-01	-5.456578e-01
4.485317670179418e-09	-5.450653e-01	-5.452555e-01
4.505166756606720e-09	-5.439670e-01	-5.441578e-01
4.534854727601588e-09	-5.413404e-01	-5.415317e-01
4.562543352116903e-09	-5.380548e-01	-5.382467e-01
4.593909578909394e-09	-5.335790e-01	-5.337717e-01
4.616352340750863e-09	-5.299246e-01	-5.301179e-01
4.643589336802930e-09	-5.249540e-01	-5.251480e-01
4.670488166266310e-09	-5.193702e-01	-5.195649e-01
4.711941677726032e-09	-5.090144e-01	-5.092104e-01
4.755434561950715e-09	-4.954132e-01	-4.956106e-01
4.789442076755844e-09	-4.826577e-01	-4.828561e-01
4.824064812213947e-09	-4.677009e-01	-4.679004e-01
4.852408934951512e-09	-4.539982e-01	-4.541986e-01
4.886713595252968e-09	-4.359178e-01	-4.361193e-01
4.918800732025364e-09	-4.179093e-01	-4.181119e-01
4.951291674341385e-09	-3.989933e-01	-3.991969e-01
4.988307586417638e-09	-3.769183e-01	-3.771230e-01
5.023521254376630e-09	-3.555856e-01	-3.557913e-01
5.048248982917595e-09	-3.405329e-01	-3.407394e-01
5.076305735801863e-09	-3.235759e-01	-3.237832e-01
5.105285249990535e-09	-3.064097e-01	-3.066178e-01
5.119881466826357e-09	-2.979579e-01	-2.981663e-01
5.131598449444864e-09	-2.912876e-01	-2.914964e-01
5.142838012752993e-09	-2.849856e-01	-2.851944e-01
5.159211085772614e-09	-2.759559e-01	-2.761647e-01
5.186227419970843e-09	-2.613481e-01	-2.615581e-01
5.214404294996976e-09	-2.463284e-01	-2.465390e-01
5.240943105730488e-09	-2.321723e-01	-2.323834e-01
5.258610623131595e-09	-2.226530e-01	-2.228643e-01
5.274659297752657e-09	-2.139103e-01	-2.141219e-01
5.293431988644648e-09	-2.035961e-01	-2.038077e-01
5.317290024662361e-09	-1.904565e-01	-1.906686e-01
5.346785096758258e-09	-1.743639e-01	-1.745763e-01
5.367137005525838e-09	-1.634545e-01	-1.636668e-01
5.378311100192670e-09	-1.575566e-01	-1.577692e-01
5.391292583075242e-09	-1.508048e-01	-1.510174e-01
5.409990264451322e-09	-1.413065e-01	-1.415191e-01
5.433614969413632e-09	-1.297338e-01	-1.299464e-01
5.453288639269942e-09	-1.204495e-01	-1.206620e-01
5.477318513996705e-09	-1.094386e-01	-1.096512e-01
5.496612914642081e-09	-1.007785e-01	-1.009909e-01
5.515339183296841e-09	-9.249122e-02	-9.270339e-02
5.552103422277951e-09	-7.669694e-02	-7.690867e-02
5.587195599629301e-09	-6.244189e-02	-6.265304e-02
5.618932178401981e-09	-5.041128e-02	-5.062180e-02
5.652519615760027e-09	-3.857466e-02	-3.878435e-02
5.694749224491356e-09	-2.489112e-02	-2.509960e-02
5.742694323182469e-09	-1.113028e-02	-1.133713e-02
5.798394093749730e-09	1.781343e-03	1.576667e-03
5.855874842487198e-09	1.111136e-02	1.090920e-02
5.896975073349416e-09	1.545699e-02	1.525674e-02
5.936105879099165e-09	1.829038e-02	1.809203e-02
5.978968768973613e-09	2.048279e-02	2.028656e-02
6.021120463548851e-09	2.196644e-02	2.177237e-02
6.056247847565666e-09	2.262180e-02	2.242955e-02
6.096381918873214e-09	2.237833e-02	2.218818e-02
6.138422057542606e-09	2.067724e-02	2.048931e-02
6.172260353489795e-09	1.823732e-02	1.805117e-02
6.212781522435841e-09	1.439494e-02	1.421089e-02
6.255901371637978e-09	9.754259e-03	9.572417e-03
6.294752738960042e-09	5.610081e-03	5.430170e-03
6.328595703925820e-09	2.382193e-03	2.203916e-03
6.367984920477748e-09	-6.848361e-04	-8.612790e-04
6.405544260126082e-09	-2.916199e-03	-3.092640e-03
6.453304451458828e-09	-5.017925e-03	-5.190693e-03
6.492090360314640e-09	-6.253110e-03	-6.424359e-03
6.536568658556005e-09	-7.108538e-03	-7.278179e-03
6.583826898884776e-09	-7.154499e-03	-7.322602e-03
6.620934036460146e-09	-6.485470e-03	-6.652495e-03
6.656441395744933e-09	-5.266346e-03	-5.432447e-03
6.698143472291046e-09	-3.021750e-03	-3.186896e-03
6.739753738749703e-09	3.776441e-04	2.133187e-04
6.770827763100218e-09	3.884376e-03	3.720582e-03
6.793727069275818e-09	7.081497e-03	6.918257e-03
6.819045155023908e-09	1.124178e-02	1.107868e-02
6.845375851169881e-09	1.619289e-02	1.603010e-02
6.868997623997599e-09	2.104835e-02	2.088607e-02
6.893295406439616e-09	2.630452e-02	2.614220e-02
6.911773058883681e-09	3.041175e-02	3.024971e-02
6.938443969392598e-09	3.643788e-02	3.627586e-02
6.963992375871891e-09	4.229347e-02	4.213158e-02
6.992838500818875e-09	4.899433e-02	4.883255e-02
7.023522064809527e-09	5.623128e-02	5.606956e-02
7.051725080204164e-09	6.297606e-02	6.281438e-02
7.079177389995583e-09	6.958465e-02	6.942296e-02
7.098207697967357e-09	7.415355e-02	7.399186e-02
7.112001838855558e-09	7.743868e-02	7.727698e-02
7.122191826145998e-09	7.984602e-02	7.968432e-02
7.135284709177319e-09	8.291807e-02	8.275636e-02
7.155648612303198e-09	8.765709e-02	8.749537e-02
7.175931069627512e-09	9.232748e-02	9.216572e-02
7.194791361463019e-09	9.663130e-02	9.646948e-02
7.217000381716905e-09	1.016957e-01	1.015339e-01
7.237663442989725e-09	1.064433e-01	1.062815e-01
7.252779233375616e-09	1.099388e-01	1.097769e-01
7.266835679506285e-09	1.131895e-01	1.130276e-01
7.290535237956851e-09	1.186110e-01	1.184490e-01
7.316555320757484e-09	1.243815e-01	1.242195e-01
7.337070228276316e-09	1.287192e-01	1.285572e-01
7.357237260412627e-09	1.327435e-01	1.325815e-01
7.378005275499166e-09	1.366101e-01	1.364481e-01
7.397700590745426e-09	1.400162e-01	1.398542e-01
7.414998049983326e-09	1.428202e-01	1.426581e-01
7.432517844315681e-09	1.455247e-01	1.453627e-01
7.451744886579331e-09	1.483977e-01	1.482356e-01
7.468756937015796e-09	1.509040e-01	1.507421e-01
7.483497648001660e-09	1.530778e-01	1.529158e-01
7.496970069597696e-09	1.550809e-01	1.549190e-01
7.510211625849669e-09	1.570701e-01	1.569082e-01
7.523212459311888e-09	1.590403e-01	1.588784e-01
7.533259664877726e-09	1.605705e-01	1.604087e-01
7.543776147626091e-09	1.621743e-01	1.620125e-01
7.559398097255128e-09	1.645461e-01	1.643844e-01
7.577196004178803e-09	1.672030e-01	1.670414e-01
7.598158900260299e-09	1.702089e-01	1.700474e-01
7.619765001825200e-09	1.730884e-01	1.729271e-01
7.647064704317904e-09	1.762835e-01	1.761222e-01
7.674060432148362e-09	1.788549e-01	1.786940e-01
7.703804531763958e-09	1.809489e-01	1.807883e-01
7.736886315853216e-09	1.824062e-01	1.822461e-01
7.770522380945032e-09	1.831105e-01	1.829508e-01
7.812190174851802e-09	1.832697e-01	1.831106e-01
7.857755041432515e-09	1.829232e-01	1.827648e-01
7.898357719841089e-09	1.822470e-01	1.820894e-01
7.934696029110961e-09	1.811961e-01	1.810391e-01
7.976412206720595e-09	1.791456e-01	1.789894e-01
8.008693470336442e-09	1.767633e-01	1.766078e-01
8.037398199591903e-09	1.739881e-01	1.738332e-01
8.068257467633891e-09	1.703156e-01	1.701613e-01
8.101372008037195e-09	1.656087e-01	1.654551e-01
8.132931795979827e-09	1.603826e-01	1.602297e-01
8.164085737525304e-09	1.544756e-01	1.543234e-01
8.200699593209574e-09	1.465847e-01	1.464332e-01
8.238055889917185e-09	1.376859e-01	1.375352e-01
8.279262545112666e-09	1.274231e-01	1.272732e-01
8.313200048961966e-09	1.190435e-01	1.188943e-01
8.341998737044173e-09	1.121690e-01	1.120204e-01
8.373222418826032e-09	1.049622e-01	1.048141e-01
8.406159471822875e-09	9.752035e-02	9.737282e-02
8.445984009983135e-09	8.851138e-02	8.836447e-02
8.477948179464854e-09	8.116052e-02	8.101421e-02
8.505714255945888e-09	7.468775e-02	7.454166e-02
8.538767515690251e-09	6.698202e-02	6.683630e-02
8.570233918768283e-09	5.978625e-02	5.964084e-02
8.606732797473822e-09	5.178877e-02	5.164365e-02
8.633393114091702e-09	4.624984e-02	4.610498e-02
8.655352035129527e-09	4.190914e-02	4.176431e-02
8.677824312996068e-09	3.769995e-02	3.755522e-02
8.702580072220620e-09	3.337347e-02	3.322882e-02
8.725853357581948e-09	2.964262e-02	2.949798e-02
8.736155128007427e-09	2.810453e-02	2.795994e-02
8.746141481571531e-09	2.668480e-02	2.654021e-02
8.756620852818750e-09	2.527398e-02	2.512939e-02
8.768332554412450e-09	2.379711e-02	2.365252e-02
8.782823036834458e-09	2.211980e-02	2.197521e-02
8.797041562702784e-09	2.063624e-02	2.049160e-02
8.819466565640103e-09	1.860781e-02	1.846318e-02
8.842604838445336e-09	1.687054e-02	1.672574e-02
8.869191718539079e-09	1.521920e-02	1.507426e-02
8.895031354314910e-09	1.385378e-02	1.370885e-02
8.916389781460980e-09	1.283241e-02	1.268712e-02
8.934462011181342e-09	1.201746e-02	1.187190e-02
8.955935927416551e-09	1.111562e-02	1.096995e-02
8.978050664096804e-09	1.030197e-02	1.015606e-02
9.002686288378545e-09	9.602963e-03	9.456748e-03
9.026955739951055e-09	9.196722e-03	9.050509e-03
9.061915106257404e-09	9.196696e-03	9.049659e-03
9.098440044236970e-09	9.969510e-03	9.821910e-03
9.127725624858542e-09	1.113549e-02	1.098742e-02
9.156465124174496e-09	1.264058e-02	1.249203e-02
9.189827020674518e-09	1.457135e-02	1.442221e-02
9.236959277269967e-09	1.703760e-02	1.688763e-02
9.276727780116966e-09	1.856055e-02	1.840985e-02
9.315128893597770e-09	1.954082e-02	1.938941e-02
9.357657385842546e-09	2.042736e-02	2.027515e-02
9.415946975926999e-09	2.206551e-02	2.191222e-02
9.462472265275562e-09	2.392253e-02	2.376838e-02
9.500884941697390e-09	2.565047e-02	2.549563e-02
9.543063919851205e-09	2.745487e-02	2.729932e-02
9.572320527166028e-09	2.858511e-02	2.842909e-02
9.602643003014824e-09	2.967112e-02	2.951463e-02
9.639085823561281e-09	3.087071e-02	3.071370e-02
9.677336201398978e-09	3.188775e-02	3.173023e-02
9.706721212277303e-09	3.238074e-02	3.222285e-02
9.737771768715547e-09	3.255082e-02	3.239257e-02
9.771314064892603e-09	3.234075e-02	3.218215e-02
9.802820980524227e-09	3.185935e-02	3.170045e-02
9.837103708250970e-09	3.122483e-02	3.106565e-02
9.860793959085629e-09	3.083618e-02	3.067664e-02
9.884189462154547e-09	3.056249e-02	3.040300e-02
9.915177560047162e-09	3.038077e-02	3.022111e-02
9.943612068388363e-09	3.033921e-02	3.017944e-02
9.976802810099788e-09	3.028764e-02	3.012787e-02
9.999997790299328e-09	3.015867e-02	2.999874e-02
1.002843916754552e-08	2.977372e-02	2.961372e-02
1.003928056941073e-08	2.954006e-02	2.938004e-02
1.004884530617815e-08	2.928219e-02	2.912219e-02
1.006242473798001e-08	2.882414e-02	2.866414e-02
1.008170366414804e-08	2.798662e-02	2.782663e-02
1.009931250945300e-08	2.704065e-02	2.688064e-02
1.011991355882325e-08	2.573800e-02	2.557799e-02
1.014094467892633e-08	2.421039e-02	2.405041e-02
1.015504847834079e-08	2.307989e-02	2.291998e-02
1.016940010576314e-08	2.184129e-02	2.168135e-02
1.018925422751578e-08	1.997642e-02	1.981648e-02
1.020561192280522e-08	1.831179e-02	1.815193e-02
1.021859346098545e-08	1.691577e-02	1.675591e-02
1.023368380538100e-08	1.522012e-02	1.506033e-02
1.025238603721285e-08	1.302904e-02	1.286925e-02
1.026540464033091e-08	1.145771e-02	1.129802e-02
1.028140764758816e-08	9.493409e-03	9.333723e-03
1.029993602504505e-08	7.196923e-03	7.037242e-03
1.032023150976324e-08	4.680401e-03	4.520913e-03
1.034222632242082e-08	1.967677e-03	1.808277e-03
1.035687059239004e-08	1.659908e-04	6.684369e-06
1.036745208417295e-08	-1.140343e-03	-1.299637e-03
1.038106593194612e-08	-2.837282e-03	-2.996573e-03
1.039725548075458e-08	-4.892086e-03	-5.051254e-03
1.040952961801731e-08	-6.483669e-03	-6.642835e-03
1.042061607757502e-08	-7.950566e-03	-8.109729e-03
1.043143689245248e-08	-9.411177e-03	-9.570203e-03
1.044216699026635e-08	-1.088862e-02	-1.104764e-02
1.045317316661037e-08	-1.243559e-02	-1.259461e-02
1.047518551929842e-08	-1.562762e-02	-1.578647e-02
1.049870717069827e-08	-1.918141e-02	-1.934018e-02
1.051540172474855e-08	-2.178950e-02	-2.194822e-02
1.053273626029415e-08	-2.456051e-02	-2.471915e-02
1.055274851662438e-08	-2.780769e-02	-2.796631e-02
1.057795160131776e-08	-3.189359e-02	-3.205215e-02
1.061227588109625e-08	-3.725417e-02	-3.741267e-02
1.063436004435670e-08	-4.048028e-02	-4.063874e-02
1.065208466281555e-08	-4.289721e-02	-4.305565e-02
1.067269127131833e-08	-4.549798e-02	-4.565641e-02
1.068460046565229e-08	-4.689751e-02	-4.705594e-02
1.069675170623168e-08	-4.824924e-02	-4.840766e-02
1.070840799927367e-08	-4.947739e-02	-4.963582e-02
1.072063075831445e-08	-5.069909e-02	-5.085751e-02
1.074004334625642e-08	-5.251827e-02	-5.267670e-02
1.076360089248532e-08	-5.456374e-02	-5.472218e-02
1.078131746281447e-08	-5.601517e-02	-5.617363e-02
1.079890775019790e-08	-5.740992e-02	-5.756841e-02
1.081927494870419e-08	-5.898562e-02	-5.914415e-02
1.084631331057201e-08	-6.100318e-02	-6.116177e-02
1.087170453585273e-08	-6.277015e-02	-6.292882e-02
1.089969920563857e-08	-6.446789e-02	-6.462666e-02
1.093008311891305e-08	-6.587524e-02	-6.603415e-02
1.094931261630785e-08	-6.648182e-02	-6.664083e-02
1.096514452995676e-08	-6.680167e-02	-6.696088e-02
1.098288638077369e-08	-6.697360e-02	-6.713281e-02
1.100128211572933e-08	-6.696212e-02	-6.712145e-02
1.103071940998166e-08	-6.660596e-02	-6.676549e-02
1.106277227449382e-08	-6.582394e-02	-6.598373e-02
1.109740720731368e-08	-6.459783e-02	-6.475790e-02
1.112975312170576e-08	-6.312742e-02	-6.328779e-02
1.117390536148486e-08	-6.061306e-02	-6.077384e-02
1.121726454888702e-08	-5.764669e-02	-5.780790e-02
1.126443473448290e-08	-5.416266e-02	-5.432436e-02
1.129282604374666e-08	-5.209731e-02	-5.225931e-02
